! Mini-Circuits								
! S2P DATA File Format								
! Type: HIGH PASS FILTER								
! Model: ZX75HP-44+								
! All S Parameters are in dB deg format								
! TEST CONDITIONS: INPUT POWER = 0 dBm @ Temperature = -40deg C								
! 401 Frequency points								
!								
# MHz S DB R 50								
!								
!FREQ  MAG(S11) PHS(S11) MAG(S12)PHS(S12)MAG(S21)PHS(S21)MAG(S22)PHS(S22)  
								
0.30	0.00	-0.77	-98.90	2.41	-94.94	93.36	0.00	-0.73
0.40	0.00	-1.01	-112.87	116.08	-94.83	-58.66	0.00	-0.99
0.50	0.00	-1.27	-101.25	-128.94	-93.54	-92.07	0.00	-1.26
1.00	0.01	-2.60	-108.84	149.20	-99.79	-38.99	0.00	-2.49
2.00	0.00	-5.21	-95.46	-77.66	-99.30	-132.41	-0.01	-5.01
3.00	0.01	-7.77	-95.20	-118.35	-104.90	-5.12	0.00	-7.44
4.00	0.01	-10.46	-101.85	27.24	-99.94	100.84	-0.01	-10.14
5.00	-0.01	-13.25	-94.47	49.07	-103.71	-34.76	-0.01	-12.59
6.00	-0.01	-15.87	-101.33	12.43	-98.07	9.84	-0.01	-15.10
7.00	-0.01	-18.51	-100.36	-14.44	-95.63	-65.92	-0.02	-17.66
8.00	-0.01	-21.20	-103.10	-52.38	-103.65	10.72	-0.02	-20.24
9.00	-0.01	-23.88	-93.28	30.66	-109.88	135.32	-0.02	-22.79
10.00	-0.03	-26.57	-92.41	61.93	-95.82	9.75	-0.03	-25.37
11.00	-0.02	-29.33	-89.95	70.05	-92.22	108.16	-0.03	-27.99
12.00	-0.04	-32.10	-94.39	76.79	-93.66	77.87	-0.04	-30.58
13.00	-0.04	-34.90	-91.13	93.53	-89.35	95.24	-0.03	-33.29
14.00	-0.04	-37.72	-88.22	76.20	-92.31	111.63	-0.04	-36.10
15.00	-0.05	-40.57	-91.64	114.35	-96.72	128.06	-0.05	-38.86
16.00	-0.05	-43.46	-84.66	-154.80	-83.32	174.85	-0.05	-41.48
17.00	-0.06	-46.40	-92.42	-174.66	-76.14	-143.70	-0.06	-44.37
18.00	-0.07	-49.45	-70.64	-147.71	-74.74	-166.10	-0.06	-47.31
19.00	-0.08	-52.55	-70.33	-163.48	-71.20	-165.13	-0.08	-50.28
20.00	-0.09	-55.76	-66.11	-161.69	-67.22	-164.16	-0.08	-53.31
21.00	-0.10	-58.99	-62.18	-164.06	-62.08	-169.03	-0.10	-56.46
22.00	-0.12	-62.34	-58.24	-164.61	-59.53	-172.63	-0.11	-59.69
23.00	-0.13	-65.75	-55.25	-170.12	-55.22	-175.09	-0.12	-63.00
24.00	-0.15	-69.29	-51.83	-174.49	-52.23	-174.18	-0.15	-66.41
25.00	-0.17	-72.96	-48.77	-177.50	-48.87	-176.68	-0.17	-70.00
26.00	-0.20	-76.73	-45.94	-179.94	-45.84	179.99	-0.19	-73.68
27.00	-0.23	-80.66	-42.89	176.04	-42.93	176.45	-0.22	-77.53
28.00	-0.26	-84.75	-40.13	171.70	-40.18	171.75	-0.25	-81.56
29.00	-0.29	-89.13	-37.30	167.76	-37.32	168.02	-0.29	-85.77
30.00	-0.34	-93.64	-34.54	163.24	-34.63	163.30	-0.34	-90.25
31.00	-0.40	-98.57	-31.82	157.97	-31.87	158.18	-0.39	-95.06
32.00	-0.46	-103.68	-29.18	152.68	-29.22	152.77	-0.45	-100.11
33.00	-0.55	-109.22	-26.54	146.91	-26.56	147.03	-0.53	-105.62
34.00	-0.65	-115.15	-23.93	140.52	-23.98	140.71	-0.64	-111.56
35.00	-0.77	-121.68	-21.34	133.48	-21.36	133.64	-0.78	-118.10
36.00	-0.95	-128.88	-18.73	125.63	-18.78	125.75	-0.95	-125.41
37.00	-1.20	-136.88	-16.17	116.76	-16.19	116.89	-1.21	-133.58
38.00	-1.55	-145.88	-13.63	106.66	-13.65	106.77	-1.60	-142.87
39.00	-2.09	-156.12	-11.17	94.96	-11.20	95.10	-2.15	-153.52
40.00	-2.92	-167.55	-8.85	81.50	-8.87	81.71	-3.02	-165.74
41.00	-4.19	-179.98	-6.76	66.36	-6.79	66.55	-4.37	-179.26
42.00	-6.09	167.50	-5.04	49.89	-5.05	50.02	-6.44	166.45
43.00	-8.84	156.77	-3.75	32.87	-3.76	32.99	-9.51	152.73
44.00	-12.50	151.48	-2.87	16.37	-2.88	16.49	-14.06	142.44
45.00	-16.80	158.17	-2.33	1.15	-2.34	1.24	-21.21	144.48
46.00	-19.59	-177.85	-2.00	-12.53	-2.01	-12.43	-27.56	-148.83
47.00	-19.04	-156.65	-1.80	-24.71	-1.81	-24.54	-21.53	-114.12
48.00	-17.78	-149.92	-1.66	-35.58	-1.66	-35.49	-18.41	-113.92
49.00	-17.03	-150.32	-1.55	-45.46	-1.56	-45.32	-17.03	-118.34
50.00	-16.85	-153.60	-1.46	-54.45	-1.47	-54.36	-16.49	-123.42
51.00	-17.11	-158.06	-1.38	-62.81	-1.39	-62.72	-16.49	-128.41
52.00	-17.70	-162.74	-1.30	-70.63	-1.30	-70.49	-16.83	-132.80
53.00	-18.63	-167.41	-1.23	-77.92	-1.23	-77.84	-17.49	-136.38
54.00	-19.87	-171.84	-1.17	-84.80	-1.17	-84.77	-18.38	-139.07
55.00	-21.50	-175.56	-1.10	-91.37	-1.10	-91.28	-19.46	-140.27
56.00	-23.55	-178.54	-1.05	-97.54	-1.05	-97.51	-20.69	-139.91
57.00	-26.17	-179.70	-1.00	-103.50	-0.99	-103.46	-22.04	-137.54
58.00	-29.75	-176.75	-0.95	-109.14	-0.96	-109.09	-23.37	-132.37
59.00	-34.70	-161.02	-0.91	-114.50	-0.92	-114.45	-24.49	-124.27
60.00	-37.90	-109.02	-0.88	-119.61	-0.88	-119.58	-25.16	-113.92
61.00	-33.53	-70.07	-0.84	-124.67	-0.85	-124.58	-25.23	-102.93
62.00	-29.78	-60.04	-0.82	-129.38	-0.82	-129.27	-24.82	-93.83
63.00	-27.19	-58.13	-0.79	-133.89	-0.79	-133.77	-24.14	-87.20
64.00	-25.38	-58.73	-0.77	-138.18	-0.77	-138.10	-23.38	-82.91
65.00	-24.03	-60.45	-0.75	-142.30	-0.75	-142.23	-22.67	-80.44
66.00	-22.99	-62.67	-0.73	-146.34	-0.73	-146.23	-22.03	-79.22
67.00	-22.19	-65.25	-0.71	-150.13	-0.72	-150.08	-21.50	-78.91
68.00	-21.59	-67.97	-0.70	-153.83	-0.70	-153.78	-21.03	-79.31
69.00	-21.09	-70.54	-0.68	-157.45	-0.68	-157.35	-20.68	-80.06
70.00	-20.71	-73.21	-0.66	-160.80	-0.67	-160.74	-20.40	-81.07
71.00	-20.44	-75.88	-0.65	-164.12	-0.65	-164.05	-20.18	-82.26
72.00	-20.25	-78.50	-0.64	-167.37	-0.65	-167.31	-20.02	-83.77
73.00	-20.11	-81.06	-0.62	-170.50	-0.63	-170.42	-19.91	-85.27
74.00	-20.04	-83.68	-0.61	-173.48	-0.62	-173.41	-19.87	-86.80
75.00	-20.02	-86.05	-0.60	-176.38	-0.60	-176.32	-19.87	-88.33
76.00	-20.04	-88.44	-0.58	-179.20	-0.58	-179.18	-19.88	-89.96
77.00	-20.12	-90.95	-0.57	178.04	-0.58	178.09	-19.98	-91.39
78.00	-20.23	-93.13	-0.55	175.37	-0.56	175.41	-20.08	-92.91
79.00	-20.34	-95.23	-0.54	172.79	-0.55	172.84	-20.22	-94.39
80.00	-20.54	-97.40	-0.53	170.27	-0.54	170.29	-20.40	-95.73
81.00	-20.75	-99.45	-0.52	167.82	-0.53	167.89	-20.61	-97.05
82.00	-21.00	-101.44	-0.52	165.44	-0.52	165.52	-20.83	-98.41
83.00	-21.27	-103.41	-0.50	163.09	-0.51	163.12	-21.08	-99.64
84.00	-21.58	-105.23	-0.49	160.84	-0.49	160.87	-21.35	-100.74
85.00	-21.90	-107.06	-0.48	158.62	-0.48	158.63	-21.67	-101.81
86.00	-22.27	-108.81	-0.47	156.44	-0.47	156.45	-22.00	-102.79
87.00	-22.67	-110.42	-0.46	154.31	-0.47	154.38	-22.35	-103.58
88.00	-23.08	-112.00	-0.45	152.24	-0.45	152.30	-22.74	-104.24
89.00	-23.55	-113.45	-0.44	150.23	-0.44	150.29	-23.14	-104.81
90.00	-24.04	-114.81	-0.43	148.31	-0.44	148.32	-23.57	-105.21
91.00	-24.57	-116.09	-0.43	146.38	-0.42	146.43	-24.03	-105.41
92.00	-25.15	-117.22	-0.42	144.48	-0.42	144.54	-24.51	-105.35
93.00	-25.76	-118.36	-0.41	142.66	-0.41	142.71	-25.00	-105.32
94.00	-26.42	-119.24	-0.40	140.87	-0.40	140.90	-25.54	-104.89
95.00	-27.14	-119.91	-0.39	139.12	-0.40	139.15	-26.08	-104.09
96.00	-27.92	-120.37	-0.39	137.40	-0.39	137.50	-26.66	-103.07
97.00	-28.76	-120.74	-0.38	135.73	-0.38	135.78	-27.25	-101.77
98.00	-29.70	-120.54	-0.37	134.07	-0.38	134.09	-27.85	-99.82
99.00	-30.74	-120.11	-0.37	132.49	-0.37	132.45	-28.46	-97.54
100.00	-31.89	-118.79	-0.37	130.85	-0.37	130.90	-29.06	-94.69
110.00	-36.91	-12.17	-0.32	116.72	-0.32	116.71	-30.89	-43.29
115.00	-31.04	1.91	-0.31	110.52	-0.31	110.55	-28.67	-26.39
120.00	-27.70	2.27	-0.29	104.85	-0.30	104.85	-26.50	-19.67
125.00	-25.36	-0.26	-0.29	99.21	-0.29	99.30	-24.74	-17.80
130.00	-23.84	-3.48	-0.28	94.39	-0.28	94.46	-23.45	-17.93
135.00	-22.73	-6.82	-0.27	89.91	-0.27	90.02	-22.45	-19.32
140.00	-21.86	-10.13	-0.27	85.68	-0.26	85.80	-21.69	-21.02
145.00	-21.21	-13.45	-0.26	81.78	-0.26	81.85	-21.05	-23.30
150.00	-20.71	-16.45	-0.25	78.15	-0.25	78.19	-20.58	-25.54
155.00	-20.30	-19.53	-0.25	74.66	-0.25	74.73	-20.22	-28.14
160.00	-20.00	-22.17	-0.24	71.41	-0.24	71.45	-19.90	-30.61
165.00	-19.75	-24.91	-0.23	68.30	-0.25	68.36	-19.66	-32.98
170.00	-19.54	-27.35	-0.23	65.40	-0.23	65.43	-19.48	-35.36
175.00	-19.41	-29.94	-0.24	62.56	-0.23	62.69	-19.34	-37.63
180.00	-19.28	-32.45	-0.23	59.96	-0.23	59.96	-19.25	-39.72
185.00	-19.20	-34.85	-0.22	57.43	-0.22	57.48	-19.17	-41.84
190.00	-19.15	-37.19	-0.22	54.98	-0.22	55.05	-19.11	-43.75
195.00	-19.12	-39.51	-0.21	52.70	-0.21	52.72	-19.09	-45.56
200.00	-19.11	-41.75	-0.21	50.47	-0.21	50.49	-19.09	-47.15
205.00	-19.12	-43.96	-0.21	48.33	-0.21	48.36	-19.12	-48.78
210.00	-19.15	-46.23	-0.20	46.28	-0.20	46.26	-19.16	-50.36
215.00	-19.21	-48.23	-0.20	44.29	-0.19	44.33	-19.21	-51.84
220.00	-19.27	-50.28	-0.18	42.33	-0.19	42.42	-19.28	-53.17
225.00	-19.36	-52.22	-0.18	40.53	-0.19	40.58	-19.37	-54.57
230.00	-19.45	-54.19	-0.19	38.72	-0.19	38.80	-19.45	-55.89
235.00	-19.56	-56.11	-0.18	37.05	-0.19	37.08	-19.57	-57.20
240.00	-19.67	-57.82	-0.18	35.30	-0.18	35.37	-19.68	-58.44
245.00	-19.76	-59.67	-0.18	33.66	-0.18	33.78	-19.80	-59.68
250.00	-19.86	-61.43	-0.17	32.13	-0.17	32.14	-19.91	-60.84
255.00	-19.98	-63.14	-0.16	30.58	-0.17	30.59	-20.01	-61.96
260.00	-20.08	-64.88	-0.17	29.05	-0.17	29.10	-20.12	-63.08
265.00	-20.18	-66.58	-0.16	27.61	-0.16	27.67	-20.21	-64.06
270.00	-20.27	-68.25	-0.16	26.19	-0.16	26.19	-20.30	-65.04
275.00	-20.35	-69.98	-0.16	24.79	-0.15	24.87	-20.39	-65.97
280.00	-20.44	-71.59	-0.16	23.48	-0.16	23.48	-20.46	-66.77
285.00	-20.51	-73.19	-0.16	22.10	-0.16	22.16	-20.55	-67.61
290.00	-20.58	-74.87	-0.15	20.81	-0.15	20.87	-20.62	-68.36
295.00	-20.66	-76.29	-0.15	19.55	-0.15	19.62	-20.67	-69.20
300.00	-20.73	-77.81	-0.15	18.33	-0.15	18.36	-20.75	-69.92
305.00	-20.79	-79.11	-0.15	17.10	-0.15	17.20	-20.83	-70.68
310.00	-20.88	-80.52	-0.15	15.94	-0.15	16.01	-20.88	-71.43
315.00	-20.95	-81.81	-0.15	14.80	-0.15	14.82	-20.97	-72.47
320.00	-21.00	-82.89	-0.14	13.62	-0.14	13.66	-21.02	-73.42
325.00	-21.06	-83.93	-0.14	12.55	-0.15	12.54	-21.09	-74.32
330.00	-21.10	-84.99	-0.14	11.41	-0.14	11.47	-21.13	-75.36
335.00	-21.14	-86.06	-0.14	10.37	-0.14	10.40	-21.17	-76.31
340.00	-21.17	-87.08	-0.14	9.27	-0.14	9.31	-21.20	-77.32
345.00	-21.20	-88.07	-0.14	8.22	-0.14	8.25	-21.22	-78.25
350.00	-21.21	-89.06	-0.14	7.19	-0.14	7.20	-21.23	-79.21
355.00	-21.23	-90.08	-0.14	6.18	-0.14	6.19	-21.24	-80.10
360.00	-21.22	-91.04	-0.13	5.23	-0.13	5.22	-21.24	-80.92
365.00	-21.23	-91.96	-0.14	4.23	-0.14	4.23	-21.24	-81.78
370.00	-21.23	-92.90	-0.13	3.26	-0.14	3.25	-21.23	-82.61
375.00	-21.24	-93.79	-0.13	2.24	-0.14	2.30	-21.22	-83.46
380.00	-21.25	-94.64	-0.14	1.35	-0.14	1.36	-21.23	-84.32
385.00	-21.25	-95.42	-0.14	0.42	-0.14	0.43	-21.23	-85.18
390.00	-21.25	-96.11	-0.13	-0.48	-0.13	-0.50	-21.23	-86.14
395.00	-21.26	-96.75	-0.14	-1.39	-0.14	-1.37	-21.24	-87.14
400.00	-21.25	-97.39	-0.13	-2.32	-0.13	-2.26	-21.23	-88.20
405.00	-21.25	-98.07	-0.13	-3.13	-0.14	-3.19	-21.23	-89.23
410.00	-21.24	-98.56	-0.14	-4.05	-0.14	-4.06	-21.22	-90.30
415.00	-21.22	-99.21	-0.14	-4.94	-0.14	-4.95	-21.20	-91.36
420.00	-21.19	-99.74	-0.14	-5.79	-0.13	-5.74	-21.17	-92.44
425.00	-21.18	-100.40	-0.13	-6.60	-0.14	-6.61	-21.15	-93.38
430.00	-21.13	-101.03	-0.13	-7.45	-0.14	-7.49	-21.10	-94.35
435.00	-21.09	-101.64	-0.14	-8.31	-0.14	-8.23	-21.05	-95.21
440.00	-21.06	-102.37	-0.13	-9.07	-0.14	-9.06	-21.01	-96.01
445.00	-21.03	-103.07	-0.14	-9.95	-0.14	-9.85	-20.97	-96.88
450.00	-21.00	-103.85	-0.14	-10.73	-0.14	-10.72	-20.95	-97.59
455.00	-20.97	-104.44	-0.14	-11.47	-0.13	-11.48	-20.90	-98.32
460.00	-20.94	-105.13	-0.14	-12.26	-0.14	-12.27	-20.87	-99.10
465.00	-20.93	-105.77	-0.14	-13.04	-0.14	-13.05	-20.85	-99.82
470.00	-20.91	-106.39	-0.14	-13.82	-0.14	-13.82	-20.85	-100.65
475.00	-20.91	-106.98	-0.14	-14.57	-0.14	-14.61	-20.83	-101.50
480.00	-20.90	-107.61	-0.13	-15.37	-0.14	-15.38	-20.82	-102.34
485.00	-20.89	-108.01	-0.14	-16.07	-0.14	-16.10	-20.82	-103.27
490.00	-20.87	-108.57	-0.14	-16.85	-0.14	-16.83	-20.79	-104.11
495.00	-20.86	-109.14	-0.14	-17.60	-0.14	-17.59	-20.82	-105.03
500.00	-20.85	-109.71	-0.14	-18.37	-0.14	-18.33	-20.79	-105.86
505.00	-20.83	-110.25	-0.13	-19.03	-0.14	-19.03	-20.78	-106.67
510.00	-20.80	-110.92	-0.14	-19.80	-0.14	-19.78	-20.74	-107.49
515.00	-20.79	-111.57	-0.15	-20.54	-0.14	-20.47	-20.72	-108.24
520.00	-20.77	-112.24	-0.14	-21.19	-0.14	-21.18	-20.69	-108.85
525.00	-20.75	-113.03	-0.14	-21.93	-0.14	-21.91	-20.65	-109.42
530.00	-20.74	-113.80	-0.14	-22.60	-0.14	-22.57	-20.63	-109.86
535.00	-20.73	-114.64	-0.14	-23.30	-0.14	-23.32	-20.61	-110.39
540.00	-20.71	-115.55	-0.14	-24.02	-0.14	-23.99	-20.59	-110.82
545.00	-20.72	-116.42	-0.14	-24.69	-0.15	-24.71	-20.58	-111.27
550.00	-20.69	-117.28	-0.14	-25.38	-0.14	-25.42	-20.56	-111.68
555.00	-20.69	-118.10	-0.15	-26.08	-0.15	-26.08	-20.57	-112.09
560.00	-20.69	-119.11	-0.15	-26.70	-0.14	-26.77	-20.54	-112.67
565.00	-20.70	-119.79	-0.15	-27.42	-0.15	-27.42	-20.55	-113.10
570.00	-20.68	-120.54	-0.15	-28.12	-0.15	-28.11	-20.53	-113.66
575.00	-20.67	-121.37	-0.14	-28.74	-0.15	-28.74	-20.52	-114.22
580.00	-20.64	-122.17	-0.14	-29.47	-0.14	-29.43	-20.54	-114.89
585.00	-20.64	-122.90	-0.14	-30.10	-0.15	-30.04	-20.51	-115.40
590.00	-20.63	-123.71	-0.15	-30.75	-0.15	-30.78	-20.48	-115.87
595.00	-20.59	-124.60	-0.15	-31.41	-0.15	-31.37	-20.45	-116.27
600.00	-20.57	-125.18	-0.15	-32.03	-0.15	-32.04	-20.42	-116.75
605.00	-20.53	-126.11	-0.14	-32.68	-0.15	-32.69	-20.39	-117.14
610.00	-20.51	-126.94	-0.15	-33.36	-0.15	-33.35	-20.35	-117.57
615.00	-20.48	-127.82	-0.15	-34.00	-0.15	-33.99	-20.33	-117.89
620.00	-20.47	-128.55	-0.15	-34.63	-0.15	-34.60	-20.30	-118.30
625.00	-20.45	-129.33	-0.15	-35.24	-0.16	-35.20	-20.27	-118.64
630.00	-20.42	-130.25	-0.15	-35.86	-0.15	-35.88	-20.25	-118.94
635.00	-20.42	-130.98	-0.15	-36.54	-0.16	-36.50	-20.23	-119.45
640.00	-20.38	-131.81	-0.15	-37.12	-0.15	-37.12	-20.23	-119.67
645.00	-20.38	-132.62	-0.15	-37.76	-0.15	-37.79	-20.19	-120.08
650.00	-20.37	-133.38	-0.15	-38.38	-0.16	-38.37	-20.19	-120.60
655.00	-20.35	-134.04	-0.15	-39.01	-0.16	-38.95	-20.18	-121.07
660.00	-20.34	-134.81	-0.15	-39.62	-0.16	-39.59	-20.16	-121.55
665.00	-20.32	-135.55	-0.16	-40.23	-0.16	-40.24	-20.16	-122.07
670.00	-20.30	-136.16	-0.15	-40.81	-0.15	-40.82	-20.12	-122.62
675.00	-20.29	-136.76	-0.15	-41.48	-0.15	-41.44	-20.10	-123.21
680.00	-20.24	-137.49	-0.15	-42.04	-0.16	-42.06	-20.08	-123.81
685.00	-20.22	-138.20	-0.15	-42.65	-0.16	-42.66	-20.04	-124.41
690.00	-20.17	-138.84	-0.16	-43.27	-0.16	-43.26	-20.02	-124.95
695.00	-20.14	-139.45	-0.15	-43.86	-0.16	-43.88	-19.99	-125.50
700.00	-20.11	-140.17	-0.16	-44.44	-0.16	-44.45	-19.95	-126.06
705.00	-20.06	-140.79	-0.16	-45.05	-0.16	-45.01	-19.92	-126.66
710.00	-20.04	-141.49	-0.16	-45.63	-0.15	-45.66	-19.87	-127.21
715.00	-20.01	-142.13	-0.16	-46.18	-0.16	-46.25	-19.85	-127.66
720.00	-19.98	-142.81	-0.16	-46.82	-0.17	-46.83	-19.82	-128.13
725.00	-19.93	-143.41	-0.16	-47.41	-0.16	-47.40	-19.80	-128.59
730.00	-19.92	-144.12	-0.16	-48.01	-0.17	-47.98	-19.76	-129.28
735.00	-19.91	-144.46	-0.16	-48.55	-0.17	-48.56	-19.74	-129.77
740.00	-19.90	-145.20	-0.16	-49.14	-0.17	-49.14	-19.72	-130.26
745.00	-19.88	-145.82	-0.16	-49.75	-0.17	-49.76	-19.71	-130.80
750.00	-19.87	-146.28	-0.16	-50.29	-0.17	-50.37	-19.68	-131.53
755.00	-19.83	-146.92	-0.16	-50.90	-0.17	-50.89	-19.64	-132.18
760.00	-19.82	-147.45	-0.17	-51.48	-0.17	-51.48	-19.65	-132.74
770.00	-19.77	-148.64	-0.17	-52.62	-0.17	-52.61	-19.59	-134.01
780.00	-19.72	-149.69	-0.17	-53.78	-0.17	-53.80	-19.55	-135.09
790.00	-19.67	-150.84	-0.17	-54.87	-0.18	-54.88	-19.50	-136.41
800.00	-19.64	-152.00	-0.17	-56.00	-0.18	-56.07	-19.48	-137.55
810.00	-19.62	-152.84	-0.18	-57.11	-0.18	-57.14	-19.45	-138.47
820.00	-19.62	-154.09	-0.18	-58.24	-0.18	-58.28	-19.43	-139.34
830.00	-19.64	-155.21	-0.18	-59.38	-0.17	-59.36	-19.44	-140.13
840.00	-19.68	-156.47	-0.18	-60.47	-0.18	-60.50	-19.44	-141.19
850.00	-19.69	-157.91	-0.18	-61.59	-0.18	-61.57	-19.45	-142.08
860.00	-19.69	-159.41	-0.17	-62.68	-0.18	-62.72	-19.47	-142.91
870.00	-19.65	-160.82	-0.18	-63.74	-0.18	-63.78	-19.44	-143.95
880.00	-19.64	-162.16	-0.18	-64.86	-0.18	-64.88	-19.43	-144.68
890.00	-19.59	-163.55	-0.18	-65.96	-0.17	-65.96	-19.40	-145.46
900.00	-19.59	-165.00	-0.18	-67.05	-0.18	-67.08	-19.38	-146.36
910.00	-19.60	-166.50	-0.19	-68.11	-0.18	-68.15	-19.40	-146.92
920.00	-19.61	-167.92	-0.19	-69.22	-0.18	-69.17	-19.42	-147.65
930.00	-19.66	-169.48	-0.19	-70.28	-0.19	-70.30	-19.42	-148.27
940.00	-19.65	-170.84	-0.18	-71.37	-0.18	-71.33	-19.43	-149.08
950.00	-19.63	-172.34	-0.18	-72.36	-0.18	-72.46	-19.41	-150.03
960.00	-19.61	-173.70	-0.18	-73.44	-0.19	-73.46	-19.39	-150.71
970.00	-19.57	-175.18	-0.18	-74.48	-0.19	-74.56	-19.34	-151.44
980.00	-19.55	-176.48	-0.20	-75.57	-0.19	-75.60	-19.34	-152.16
990.00	-19.54	-177.98	-0.19	-76.60	-0.19	-76.68	-19.35	-152.82
1000.00	-19.60	-179.34	-0.18	-77.66	-0.19	-77.71	-19.36	-153.38
1010.00	-19.62	179.31	-0.19	-78.75	-0.18	-78.76	-19.39	-154.22
1020.00	-19.63	178.09	-0.20	-79.81	-0.19	-79.82	-19.41	-155.20
1030.00	-19.61	176.99	-0.19	-80.85	-0.19	-80.84	-19.41	-156.24
1040.00	-19.60	175.79	-0.19	-81.86	-0.19	-81.91	-19.35	-157.26
1050.00	-19.53	174.64	-0.20	-82.87	-0.19	-82.91	-19.34	-158.16
1060.00	-19.51	173.41	-0.20	-83.91	-0.20	-83.93	-19.32	-158.91
1070.00	-19.53	172.14	-0.20	-85.00	-0.20	-85.02	-19.32	-159.84
1080.00	-19.54	170.90	-0.19	-86.02	-0.20	-86.02	-19.34	-160.71
1090.00	-19.58	169.67	-0.19	-87.02	-0.20	-87.09	-19.36	-161.63
1100.00	-19.58	168.80	-0.20	-88.09	-0.20	-88.10	-19.39	-162.73
1110.00	-19.55	167.80	-0.20	-89.09	-0.20	-89.11	-19.38	-163.84
1120.00	-19.51	166.97	-0.20	-90.13	-0.20	-90.14	-19.36	-165.06
1130.00	-19.45	166.12	-0.20	-91.13	-0.20	-91.14	-19.32	-166.35
1140.00	-19.44	164.88	-0.20	-92.10	-0.20	-92.18	-19.29	-167.31
1150.00	-19.47	163.85	-0.20	-93.15	-0.21	-93.23	-19.26	-168.21
1160.00	-19.49	162.63	-0.20	-94.18	-0.20	-94.27	-19.29	-168.98
1170.00	-19.52	161.34	-0.20	-95.20	-0.20	-95.24	-19.35	-169.96
1180.00	-19.51	160.26	-0.20	-96.21	-0.20	-96.20	-19.33	-170.93
1190.00	-19.47	159.22	-0.21	-97.18	-0.21	-97.27	-19.31	-172.19
1200.00	-19.39	158.27	-0.20	-98.24	-0.20	-98.24	-19.25	-173.21
1210.00	-19.34	157.45	-0.21	-99.30	-0.21	-99.27	-19.20	-174.22
1220.00	-19.28	156.27	-0.20	-100.24	-0.21	-100.29	-19.15	-175.06
1230.00	-19.25	155.10	-0.21	-101.24	-0.21	-101.30	-19.14	-176.02
1240.00	-19.26	153.89	-0.21	-102.23	-0.21	-102.30	-19.12	-176.73
1250.00	-19.28	152.75	-0.22	-103.25	-0.22	-103.33	-19.15	-177.73
1260.00	-19.28	151.66	-0.21	-104.32	-0.21	-104.33	-19.14	-178.62
1270.00	-19.22	150.64	-0.22	-105.25	-0.21	-105.29	-19.11	-179.59
1280.00	-19.15	149.45	-0.22	-106.28	-0.22	-106.31	-19.04	179.23
1290.00	-19.10	148.45	-0.21	-107.27	-0.22	-107.27	-18.98	178.36
1300.00	-19.03	147.13	-0.21	-108.23	-0.22	-108.28	-18.94	177.64
1310.00	-19.03	145.98	-0.22	-109.21	-0.21	-109.32	-18.95	176.99
1320.00	-19.04	144.56	-0.21	-110.21	-0.22	-110.33	-18.95	176.30
1330.00	-19.08	143.45	-0.22	-111.26	-0.22	-111.30	-18.98	175.41
1340.00	-19.09	142.43	-0.22	-112.25	-0.23	-112.30	-19.00	174.34
1350.00	-19.06	141.29	-0.23	-113.23	-0.22	-113.28	-18.98	173.22
1360.00	-19.02	140.21	-0.22	-114.27	-0.22	-114.24	-18.94	172.10
1370.00	-18.95	139.08	-0.23	-115.23	-0.23	-115.26	-18.89	171.22
1380.00	-18.91	137.85	-0.22	-116.23	-0.23	-116.19	-18.84	170.60
1390.00	-18.92	136.73	-0.22	-117.15	-0.22	-117.23	-18.86	169.93
1400.00	-18.95	135.41	-0.22	-118.13	-0.23	-118.16	-18.90	169.24
1410.00	-18.99	134.38	-0.23	-119.15	-0.23	-119.20	-18.94	168.45
1420.00	-19.02	133.38	-0.23	-120.16	-0.23	-120.18	-18.98	167.24
1430.00	-19.02	132.38	-0.23	-121.13	-0.23	-121.18	-19.02	166.09
1440.00	-19.01	131.48	-0.23	-122.11	-0.24	-122.18	-19.00	165.08
1450.00	-18.99	130.35	-0.23	-123.07	-0.24	-123.14	-18.97	164.16
1460.00	-18.97	129.17	-0.23	-124.09	-0.23	-124.09	-18.93	163.48
1470.00	-19.00	127.86	-0.23	-125.04	-0.23	-125.11	-18.95	162.88
1480.00	-19.05	126.73	-0.23	-126.00	-0.24	-126.11	-19.01	162.22
1490.00	-19.11	125.60	-0.23	-126.99	-0.24	-127.05	-19.09	161.25
1500.00	-19.17	124.61	-0.23	-128.02	-0.24	-128.06	-19.16	160.16
1510.00	-19.17	123.74	-0.23	-128.97	-0.24	-129.05	-19.22	159.05
1520.00	-19.18	122.77	-0.23	-129.96	-0.24	-129.99	-19.20	157.91
1530.00	-19.16	121.97	-0.24	-130.92	-0.25	-130.95	-19.19	156.89
1540.00	-19.17	120.63	-0.24	-131.89	-0.24	-131.96	-19.17	156.14
1550.00	-19.18	119.59	-0.24	-132.91	-0.24	-132.96	-19.16	155.40
