! Mini-Circuits
! S2P DATA File Format
! Type: Low Pass Coaxial Filter
! Model: SBLP-467+    
! Note: All S Parameters are in dB deg format
! TEST CONDITIONS: INPUT POWER = 0dBm @Temperature = +25degC
! 1601 Frequency points
!
# MHz S DB R 50
!    FREQ       dB(S11)   PHS(S11)  dB(S21)   PHS(S21)  dB(S12)   PHS(S12)  dB(S22)   PHS(S22)                
     0.01       -72.78    52.18     -0.01     0.01      -0.01     -0.01      -64.21    -1.59  
     0.02       -63.95    8.33      0         0         -0.01     -0.01      -63.9     12.81  
     0.03       -65.16    9.55      -0.01     -0.01     -0.01     -0.01      -63.61    7.13   
     0.04       -64.58    7.43      -0.01     -0.02     0         -0.01      -64.69    6.77   
     0.05       -64.23    14.51     0         -0.02     -0.01     -0.02      -63.9     13.26  
     0.06       -64.86    17.97     0         -0.02     -0.01     -0.02      -64.08    10.41  
     0.07       -64.81    15.69     -0.01     -0.02     0         -0.03      -63.61    3.47   
     0.08       -64.62    22.32     -0.01     -0.03     -0.01     -0.03      -65.32    9.95   
     0.09       -63.7     21.23     0         -0.03     0         -0.04      -64.17    7.48   
     0.1        -63.76    19.82     0         -0.04     0         -0.04      -63.01    23.72  
     0.11       -63.98    24.39     0         -0.04     -0.01     -0.04      -62.88    17.72  
     0.12       -64.29    22.8      0         -0.04     -0.01     -0.05      -64.16    15.75  
     0.13       -63.85    27.3      -0.01     -0.05     0         -0.05      -62.95    16.61  
     0.14       -62.98    21.43     -0.01     -0.05     -0.01     -0.05      -63.49    25.69  
     0.15       -64.15    35.67     -0.01     -0.05     -0.01     -0.06      -63.09    20.66  
     0.16       -63.7     22.64     -0.01     -0.06     -0.01     -0.06      -63.9     31.89  
     0.17       -63.82    25.36     -0.01     -0.06     -0.01     -0.06      -62.71    32.24  
     0.18       -62.68    25.36     0         -0.07     0         -0.07      -62.97    29.19  
     0.19       -64.55    25.26     -0.01     -0.07     -0.01     -0.07      -63.03    22.11  
     0.2        -63.39    37.47     -0.01     -0.07     -0.01     -0.07      -63.48    32.64  
     0.21       -61.93    36.94     0         -0.07     -0.01     -0.08      -62.44    33.45  
     0.22       -63.35    35.83     -0.01     -0.08     0         -0.08      -61.53    30.13  
     0.23       -62.84    41.8      0         -0.08     -0.01     -0.08      -62.03    35.49  
     0.24       -61.67    40.01     -0.01     -0.09     -0.01     -0.09      -61.97    37.87  
     0.25       -61.23    31.05     -0.01     -0.09     -0.01     -0.09      -61.35    38     
     0.26       -62.59    40.92     -0.01     -0.09     -0.01     -0.1       -62.35    39.37  
     0.27       -61.72    33        0         -0.1      -0.01     -0.1       -61.69    39.36  
     0.28       -61.92    45.25     0         -0.1      -0.01     -0.1       -61.93    40.12  
     0.29       -61.51    38.57     -0.01     -0.1      -0.01     -0.11      -61.77    36.87  
     0.3        -62.26    44.26     -0.01     -0.11     -0.01     -0.11      -60.93    44.6   
     0.31       -61.68    50.36     -0.01     -0.11     -0.01     -0.11      -60.76    37.99  
     0.32       -61.94    37.09     -0.01     -0.12     -0.01     -0.12      -61.26    47.83  
     0.33       -61.34    44.63     0         -0.12     -0.01     -0.12      -61.32    46.14  
     0.34       -60.56    50.44     -0.01     -0.13     -0.01     -0.13      -60.57    48.12  
     0.35       -61.74    47.03     -0.01     -0.13     -0.01     -0.13      -60.05    40.36  
     0.36       -60.22    45.99     0         -0.13     -0.01     -0.14      -60.6     46.79  
     0.37       -60.41    45.09     -0.01     -0.13     -0.01     -0.14      -60.78    41.83  
     0.38       -61.22    50.86     -0.01     -0.14     -0.01     -0.14      -60.22    49.07  
     0.39       -60.77    46.32     0         -0.14     -0.01     -0.14      -59.9     52.79  
     0.4        -60.68    58        -0.01     -0.14     -0.01     -0.15      -60.35    48.35  
     0.41       -59.88    52.9      -0.01     -0.15     -0.01     -0.15      -60.11    44.41  
     0.42       -59.14    48.16     0         -0.15     -0.01     -0.16      -59.77    49.43  
     0.43       -59.93    53.83     -0.01     -0.15     -0.01     -0.16      -59.29    57.17  
     0.44       -60.08    50.67     -0.01     -0.16     -0.01     -0.16      -59.92    56.26  
     0.45       -59.22    51.78     -0.01     -0.16     -0.01     -0.17      -59.31    55.3   
     0.46       -59.89    50.29     -0.01     -0.17     -0.01     -0.16      -58.9     51.44  
     0.47       -59.81    54.19     -0.01     -0.17     -0.01     -0.17      -59.19    49.51  
     0.48       -58.86    53.08     -0.01     -0.17     -0.01     -0.18      -59.38    55.47  
     0.49       -58.73    56.98     -0.01     -0.18     -0.01     -0.18      -59.68    52.83  
     0.5        -59.04    54.65     -0.01     -0.18     -0.01     -0.18      -58.43    52.58  
     0.51       -58.57    55.53     -0.01     -0.19     -0.01     -0.19      -58.53    53.69  
     0.52       -59.32    58.5      -0.01     -0.19     0         -0.19      -58.62    55.35  
     0.53       -58.84    56.45     -0.01     -0.19     -0.01     -0.2       -59.52    54.78  
     0.54       -58.33    57.46     -0.01     -0.19     -0.01     -0.2       -58.53    54.61  
     0.55       -58.2     57.24     -0.01     -0.2      -0.01     -0.2       -58.7     56.08  
     0.56       -58.08    58.17     -0.01     -0.2      -0.01     -0.21      -58.71    56.56  
     0.57       -57.57    61.59     -0.01     -0.2      -0.01     -0.21      -59.01    58.64  
     0.58       -57.63    58.86     -0.01     -0.21     -0.01     -0.21      -58.17    54.92  
     0.59       -57.88    56.96     -0.01     -0.21     -0.01     -0.21      -57.84    55.49  
     0.6        -58.7     60.41     -0.01     -0.22     -0.01     -0.22      -57.57    57.87  
     0.61       -58.58    60.11     -0.01     -0.22     -0.01     -0.22      -57.44    57.31  
     0.62       -57.97    60.72     -0.01     -0.23     -0.01     -0.23      -57.44    61.97  
     0.63       -57.36    60.82     -0.01     -0.23     -0.01     -0.23      -57.61    62.03  
     0.64       -57.14    61.79     -0.01     -0.23     -0.01     -0.23      -57.64    62.81  
     0.65       -57.42    60.87     -0.01     -0.24     -0.01     -0.24      -57.07    55.98  
     0.66       -57.03    61.44     -0.01     -0.24     -0.01     -0.24      -57.01    58.59  
     0.67       -57.4     62.89     -0.01     -0.24     -0.01     -0.24      -56.65    60.71  
     0.68       -56.76    61.95     -0.01     -0.25     -0.01     -0.24      -56.72    61.22  
     0.69       -57.01    62.28     -0.01     -0.25     -0.01     -0.25      -56.82    58.55  
     0.7        -57.14    62.06     -0.01     -0.26     -0.01     -0.26      -56.79    62.8   
     0.71       -56.53    62.94     -0.01     -0.26     -0.01     -0.26      -56.41    63.34  
     0.72       -56.7     62.53     -0.01     -0.26     -0.01     -0.26      -55.86    64.16  
     0.73       -56.7     66.41     -0.01     -0.26     -0.01     -0.26      -56.23    58.81  
     0.74       -56.2     63.53     -0.01     -0.27     -0.01     -0.27      -55.83    63.21  
     0.75       -56.93    65.48     -0.01     -0.27     -0.01     -0.27      -56.4     63.77  
     0.76       -55.9     65.27     -0.01     -0.28     -0.01     -0.28      -55.92    64.8   
     0.77       -55.95    63.71     -0.01     -0.28     -0.01     -0.28      -55.99    61.29  
     0.78       -55.97    66.99     -0.01     -0.28     -0.01     -0.29      -56.2     63.72  
     0.79       -55.95    64.3      -0.01     -0.28     -0.01     -0.29      -56.18    66.09  
     0.8        -55.64    65.4      -0.01     -0.29     -0.01     -0.29      -55.69    62.91  
     0.81       -55.61    64.71     -0.01     -0.3      -0.01     -0.3       -56.12    65.09  
     0.82       -55.3     64.55     -0.01     -0.29     -0.01     -0.3       -55.89    67.61  
     0.83       -55.22    66.6      -0.01     -0.3      -0.01     -0.3       -55.51    63.2   
     0.84       -56.14    65.93     -0.01     -0.3      -0.01     -0.3       -55.23    64.8   
     0.85       -55.39    64.94     -0.01     -0.31     -0.01     -0.31      -55.66    66     
     0.86       -55.17    66.43     -0.01     -0.31     -0.01     -0.32      -55.42    64.08  
     0.87       -55.07    65.09     -0.01     -0.32     -0.01     -0.32      -54.9     62.94  
     0.88       -55.21    67.3      -0.01     -0.32     -0.01     -0.32      -55.24    65.44  
     0.89       -55.03    65.21     -0.01     -0.32     -0.01     -0.32      -55.42    69.26  
     0.9        -55.15    67.65     -0.01     -0.33     -0.01     -0.33      -55.22    64.82  
     0.91       -55.04    68.94     -0.01     -0.33     -0.01     -0.33      -55.09    65.25  
     0.92       -54.88    66.2      -0.01     -0.33     -0.01     -0.34      -54.82    63.29  
     0.93       -54.48    65.74     -0.01     -0.34     -0.01     -0.34      -54.55    67.87  
     0.94       -54.73    69.06     -0.01     -0.34     -0.01     -0.34      -54.49    65.21  
     0.95       -54.75    67.8      -0.01     -0.34     -0.01     -0.35      -54.5     66.39  
     0.96       -54.71    68.31     -0.01     -0.35     -0.01     -0.35      -54.41    66.7   
     0.97       -54.37    68.41     -0.01     -0.36     -0.01     -0.35      -54.53    69.74  
     0.98       -54.34    67.57     -0.01     -0.36     -0.01     -0.36      -54.61    69.78  
     0.99       -54.42    68.76     -0.01     -0.36     -0.01     -0.36      -54.03    68.33  
     1          -54.38    69.11     -0.01     -0.36     -0.01     -0.36      -54.2     67.97  
     1.5        -51.05    74.37     -0.01     -0.54     -0.01     -0.54      -51.06    71.92  
     2          -49.2     75.88     -0.01     -0.72     -0.01     -0.71      -48.85    74.58  
     2.5        -47.05    76.61     -0.01     -0.89     -0.01     -0.9       -46.9     75.22  
     3          -45.69    77.65     -0.01     -1.07     -0.01     -1.06      -45.51    77.75  
     3.5        -44.45    79.16     -0.01     -1.24     -0.01     -1.24      -44.41    77.27  
     4          -43.27    80.11     -0.01     -1.41     -0.01     -1.41      -43.25    77.99  
     4.5        -42.32    79.45     -0.01     -1.59     -0.01     -1.58      -42.34    78.08  
     5          -41.46    80.62     -0.01     -1.76     -0.01     -1.76      -41.45    78.43  
     5.5        -40.79    80.86     -0.01     -1.93     -0.01     -1.93      -40.72    78.61  
     6          -40.05    80.78     -0.01     -2.11     -0.01     -2.11      -39.98    78.36  
     6.5        -39.4     81.7      -0.01     -2.28     -0.01     -2.28      -39.38    78.08  
     7          -38.86    81.53     -0.01     -2.45     -0.01     -2.45      -38.79    78.17  
     7.5        -38.29    81.95     -0.02     -2.62     -0.02     -2.63      -38.18    78.11  
     8          -37.72    81.98     -0.02     -2.79     -0.02     -2.79      -37.65    77.8   
     8.5        -37.27    82.2      -0.02     -2.96     -0.02     -2.96      -37.16    77.6   
     9          -36.79    82.26     -0.02     -3.14     -0.02     -3.14      -36.71    77.71  
     9.5        -36.34    82.28     -0.02     -3.31     -0.02     -3.31      -36.29    77.54  
     10         -35.91    82.37     -0.02     -3.48     -0.02     -3.48      -35.89    77.39  
     10.5       -35.54    82.42     -0.02     -3.65     -0.02     -3.65      -35.46    77.17  
     11         -35.14    82.46     -0.02     -3.82     -0.02     -3.82      -35.08    77.06  
     11.5       -34.77    82.59     -0.02     -3.99     -0.02     -3.99      -34.69    76.98  
     12         -34.44    82.73     -0.02     -4.16     -0.02     -4.16      -34.38    76.76  
     12.5       -34.11    82.79     -0.02     -4.33     -0.02     -4.34      -34.01    76.54  
     13         -33.78    82.65     -0.02     -4.51     -0.02     -4.51      -33.66    76.3   
     13.5       -33.46    82.85     -0.02     -4.68     -0.02     -4.68      -33.37    76.1   
     14         -33.16    82.9      -0.02     -4.85     -0.02     -4.85      -33.07    75.81  
     14.5       -32.85    82.86     -0.02     -5.02     -0.02     -5.02      -32.79    75.54  
     15         -32.59    82.94     -0.02     -5.19     -0.02     -5.19      -32.51    75.49  
     15.5       -32.32    82.88     -0.02     -5.36     -0.02     -5.36      -32.25    75.2   
     16         -32.06    82.95     -0.02     -5.53     -0.02     -5.53      -31.98    74.91  
     16.5       -31.8     83.05     -0.02     -5.7      -0.03     -5.7       -31.73    74.64  
     17         -31.56    82.94     -0.03     -5.87     -0.03     -5.87      -31.48    74.49  
     17.5       -31.33    82.94     -0.03     -6.04     -0.03     -6.04      -31.24    74.22  
     18         -31.1     83        -0.03     -6.21     -0.03     -6.21      -31       74.1   
     18.5       -30.86    82.96     -0.03     -6.38     -0.03     -6.38      -30.78    73.86  
     19         -30.64    82.97     -0.03     -6.55     -0.03     -6.56      -30.56    73.61  
     19.5       -30.43    82.99     -0.03     -6.72     -0.03     -6.73      -30.35    73.25  
     20         -30.21    82.97     -0.03     -6.89     -0.03     -6.89      -30.12    72.95  
     20.5       -30.01    82.91     -0.03     -7.06     -0.03     -7.06      -29.92    72.73  
     21         -29.81    82.89     -0.03     -7.23     -0.03     -7.23      -29.72    72.62  
     21.5       -29.63    82.86     -0.03     -7.41     -0.03     -7.41      -29.53    72.26  
     22         -29.42    82.95     -0.03     -7.57     -0.03     -7.57      -29.33    71.91  
     22.5       -29.24    82.87     -0.03     -7.75     -0.03     -7.75      -29.14    71.76  
     23         -29.07    82.86     -0.03     -7.91     -0.03     -7.92      -28.97    71.36  
     23.5       -28.89    82.89     -0.03     -8.09     -0.03     -8.09      -28.79    71.19  
     24         -28.72    82.86     -0.03     -8.25     -0.03     -8.26      -28.62    70.97  
     24.5       -28.54    82.78     -0.03     -8.43     -0.03     -8.43      -28.45    70.57  
     25         -28.37    82.81     -0.03     -8.6      -0.03     -8.6       -28.28    70.41  
     25.5       -28.21    82.79     -0.03     -8.77     -0.03     -8.77      -28.12    70.17  
     26         -28.04    82.76     -0.03     -8.94     -0.04     -8.93      -27.96    69.94  
     26.5       -27.89    82.74     -0.04     -9.11     -0.04     -9.11      -27.78    69.57  
     27         -27.73    82.71     -0.04     -9.28     -0.04     -9.28      -27.64    69.28  
     27.5       -27.58    82.66     -0.04     -9.45     -0.04     -9.45      -27.48    69     
     28         -27.43    82.64     -0.04     -9.62     -0.04     -9.62      -27.34    68.78  
     28.5       -27.28    82.6      -0.04     -9.79     -0.04     -9.79      -27.19    68.46  
     29         -27.14    82.67     -0.04     -9.96     -0.04     -9.96      -27.04    68.24  
     29.5       -27       82.62     -0.04     -10.13    -0.04     -10.12     -26.9     67.96  
     30         -26.86    82.56     -0.04     -10.29    -0.04     -10.3      -26.75    67.6   
     30.5       -26.73    82.5      -0.04     -10.47    -0.04     -10.46     -26.62    67.38  
     31         -26.59    82.51     -0.04     -10.63    -0.04     -10.64     -26.48    67.1   
     31.5       -26.46    82.47     -0.04     -10.81    -0.04     -10.8      -26.35    66.81  
     32         -26.33    82.48     -0.04     -10.97    -0.04     -10.97     -26.22    66.59  
     32.5       -26.19    82.37     -0.04     -11.14    -0.04     -11.15     -26.09    66.23  
     33         -26.07    82.37     -0.04     -11.31    -0.04     -11.31     -25.97    65.92  
     33.5       -25.94    82.32     -0.04     -11.48    -0.04     -11.48     -25.84    65.67  
     34         -25.82    82.29     -0.04     -11.65    -0.04     -11.65     -25.71    65.42  
     34.5       -25.69    82.31     -0.04     -11.82    -0.05     -11.82     -25.59    65.07  
     35         -25.58    82.23     -0.05     -11.99    -0.05     -11.99     -25.47    64.81  
     35.5       -25.46    82.19     -0.05     -12.16    -0.05     -12.16     -25.36    64.6   
     36         -25.35    82.19     -0.05     -12.33    -0.05     -12.33     -25.24    64.22  
     36.5       -25.23    82.08     -0.05     -12.5     -0.05     -12.5      -25.13    63.92  
     37         -25.12    82.09     -0.05     -12.67    -0.05     -12.67     -25       63.68  
     37.5       -25       82.07     -0.05     -12.84    -0.05     -12.84     -24.9     63.35  
     38         -24.9     82.02     -0.05     -13.01    -0.05     -13.01     -24.79    63.12  
     38.5       -24.78    81.92     -0.05     -13.18    -0.05     -13.18     -24.67    62.81  
     39         -24.68    81.94     -0.05     -13.35    -0.05     -13.35     -24.57    62.54  
     39.5       -24.57    81.9      -0.05     -13.52    -0.05     -13.52     -24.46    62.24  
     40         -24.47    81.87     -0.05     -13.69    -0.05     -13.69     -24.35    61.97  
     40.5       -24.36    81.85     -0.05     -13.86    -0.05     -13.86     -24.25    61.69  
     41         -24.27    81.75     -0.05     -14.03    -0.05     -14.03     -24.15    61.33  
     41.5       -24.16    81.74     -0.05     -14.2     -0.05     -14.2      -24.05    61.02  
     42         -24.06    81.71     -0.05     -14.37    -0.05     -14.37     -23.95    60.8   
     42.5       -23.97    81.65     -0.06     -14.54    -0.06     -14.54     -23.85    60.5   
     43         -23.86    81.63     -0.06     -14.71    -0.06     -14.71     -23.75    60.19  
     43.5       -23.77    81.58     -0.06     -14.88    -0.06     -14.88     -23.66    59.96  
     44         -23.68    81.5      -0.06     -15.05    -0.06     -15.04     -23.57    59.6   
     44.5       -23.59    81.55     -0.06     -15.22    -0.06     -15.21     -23.46    59.34  
     45         -23.49    81.45     -0.06     -15.39    -0.06     -15.38     -23.37    59     
     45.5       -23.39    81.41     -0.06     -15.56    -0.06     -15.55     -23.28    58.73  
     46         -23.3     81.38     -0.06     -15.72    -0.06     -15.72     -23.19    58.41  
     46.5       -23.21    81.31     -0.06     -15.9     -0.06     -15.89     -23.11    58.12  
     47         -23.13    81.24     -0.06     -16.07    -0.06     -16.06     -23.01    57.87  
     47.5       -23.03    81.23     -0.06     -16.23    -0.06     -16.23     -22.92    57.55  
     48         -22.96    81.16     -0.06     -16.4     -0.06     -16.4      -22.83    57.26  
     48.5       -22.87    81.12     -0.06     -16.57    -0.06     -16.57     -22.75    56.99  
     49         -22.78    81.05     -0.06     -16.74    -0.06     -16.74     -22.67    56.68  
     49.5       -22.69    81.03     -0.06     -16.91    -0.06     -16.91     -22.58    56.39  
     50         -22.61    80.98     -0.07     -17.08    -0.07     -17.08     -22.5     56.12  
     50.5       -22.53    80.94     -0.07     -17.25    -0.07     -17.25     -22.42    55.79  
     51         -22.44    80.9      -0.07     -17.42    -0.07     -17.42     -22.34    55.53  
     51.5       -22.36    80.82     -0.07     -17.59    -0.07     -17.59     -22.25    55.22  
     52         -22.28    80.81     -0.07     -17.76    -0.07     -17.76     -22.17    54.93  
     52.5       -22.2     80.79     -0.07     -17.93    -0.07     -17.93     -22.09    54.63  
     53         -22.12    80.74     -0.07     -18.1     -0.07     -18.1      -22       54.35  
