! Mini-Circuits								
! S2P DATA File Format								
! Type: HIGH PASS FILTER								
! Model: SHP-48+								
! All S Parameters are in dB deg format								
! TEST CONDITIONS: INPUT POWER = 0 dBm @ Temperature = -40deg C															
!								
# MHz S DB R 50
!Frequency        S11 dB  S11 DEG   S21 dB  S21 DEG   S12 dB  S12 DEG   S22 dB  S22 DEG
    .5000      3.812432E-003 -1.869080E+000 -1.042344E+002  3.116211E+001 -1.023789E+002  5.355859E+001 -3.628850E-003 -1.860840E+000
   1.0000     -1.699567E-003 -3.681885E+000 -9.595703E+001 -7.352734E+001 -1.085820E+002  8.375391E+001  2.158761E-003 -3.672241E+000
   1.5000     -3.996372E-003 -5.467285E+000 -9.774219E+001 -1.715313E+002 -9.533984E+001 -9.022949E+000 -1.561761E-003 -5.468506E+000
   2.0000     -2.342701E-003 -7.349854E+000 -9.765234E+001 -8.666797E+001 -9.719531E+001  5.655469E+001 -1.561761E-003 -7.293701E+000
   2.5000     -6.293058E-003 -9.135254E+000 -1.042461E+002 -6.370313E+001 -9.878906E+001  1.588047E+002 -5.879641E-003 -9.107910E+000
   3.0000     -6.109238E-003 -1.098535E+001 -1.018984E+002  1.759453E+002 -1.031445E+002 -9.730859E+001 -1.364231E-002 -1.093311E+001
   3.5000     -9.278774E-003 -1.282129E+001 -1.152305E+002  1.756719E+002 -9.282813E+001  1.070742E+002 -4.042387E-003 -1.287744E+001
   4.0000      5.052686E-004 -1.473682E+001 -9.064063E+001  7.326563E+001 -9.435547E+001  2.744434E+001 -1.681232E-002 -1.470801E+001
   4.5000     -1.249409E-002 -1.662012E+001 -9.107813E+001  8.451172E+001 -8.732813E+001  6.180273E+001 -5.787849E-003 -1.647266E+001
   5.0000     -1.938438E-002 -1.845898E+001 -8.888672E+001  6.325781E+001 -8.595703E+001  5.688086E+001 -1.024342E-002 -1.837891E+001
   5.5000     -1.318312E-002 -2.030078E+001 -8.416016E+001  5.474023E+001 -8.339453E+001  4.073242E+001 -1.612282E-002 -2.023340E+001
   6.0000     -1.345873E-002 -2.216797E+001 -7.963281E+001  5.083594E+001 -8.102734E+001  5.610547E+001 -1.722527E-002 -2.209375E+001
   6.5000     -1.929283E-002 -2.405371E+001 -7.626172E+001  5.427344E+001 -7.637891E+001  4.254297E+001 -7.165670E-003 -2.399707E+001
   7.0000     -2.333450E-002 -2.595410E+001 -7.375391E+001  4.836719E+001 -7.340625E+001  4.931641E+001 -1.525021E-002 -2.587305E+001
   7.5000     -2.567768E-002 -2.788477E+001 -7.046484E+001  4.982617E+001 -7.047656E+001  4.935156E+001 -2.962780E-002 -2.773730E+001
   8.0000     -2.333450E-002 -2.978613E+001 -6.794922E+001  4.757617E+001 -6.744141E+001  4.797266E+001 -2.916813E-002 -2.969922E+001
   8.5000     -3.440475E-002 -3.171680E+001 -6.516016E+001  4.298633E+001 -6.483984E+001  4.510938E+001 -2.985764E-002 -3.159570E+001
   9.0000     -3.826332E-002 -3.366016E+001 -6.251172E+001  4.399219E+001 -6.231250E+001  4.294336E+001 -2.696323E-002 -3.355469E+001
   9.5000     -4.138756E-002 -3.558008E+001 -6.013867E+001  4.204688E+001 -6.011523E+001  4.108594E+001 -3.941154E-002 -3.544922E+001
  10.0000     -3.909111E-002 -3.758398E+001 -5.803320E+001  3.984961E+001 -5.786719E+001  4.095898E+001 -4.552078E-002 -3.738281E+001
  10.5000     -4.625511E-002 -3.958203E+001 -5.582617E+001  3.845898E+001 -5.578516E+001  3.918945E+001 -4.841423E-002 -3.943164E+001
  11.0000     -4.602623E-002 -4.157813E+001 -5.377930E+001  3.737305E+001 -5.370313E+001  3.687500E+001 -5.323792E-002 -4.143555E+001
  11.5000     -5.847359E-002 -4.362305E+001 -5.180469E+001  3.552148E+001 -5.180664E+001  3.530859E+001 -6.035805E-002 -4.348438E+001
  12.0000     -6.090927E-002 -4.567969E+001 -4.989844E+001  3.367969E+001 -4.983398E+001  3.352148E+001 -6.306839E-002 -4.549609E+001
  12.5000     -7.271576E-002 -4.774414E+001 -4.808594E+001  3.172852E+001 -4.804688E+001  3.140625E+001 -8.029556E-002 -4.755859E+001
  13.0000     -7.560730E-002 -4.983398E+001 -4.633594E+001  2.978516E+001 -4.629688E+001  2.970117E+001 -7.593155E-002 -4.964453E+001
  13.5000     -8.566666E-002 -5.194336E+001 -4.459961E+001  2.764648E+001 -4.457227E+001  2.774023E+001 -7.955933E-002 -5.176367E+001
  14.0000     -8.396912E-002 -5.407422E+001 -4.296094E+001  2.570508E+001 -4.291406E+001  2.555469E+001 -9.393692E-002 -5.390625E+001
  14.5000     -1.003685E-001 -5.632422E+001 -4.135938E+001  2.368750E+001 -4.131445E+001  2.364063E+001 -9.214401E-002 -5.605273E+001
  15.0000     -1.101036E-001 -5.860742E+001 -3.980078E+001  2.162598E+001 -3.975000E+001  2.154785E+001 -9.623337E-002 -5.827148E+001
  15.5000     -1.168556E-001 -6.081641E+001 -3.828906E+001  1.942480E+001 -3.825195E+001  1.927734E+001 -1.103325E-001 -6.059961E+001
  16.0000     -1.242523E-001 -6.299609E+001 -3.687305E+001  1.713965E+001 -3.679492E+001  1.743457E+001 -1.175919E-001 -6.281055E+001
  16.5000     -1.264114E-001 -6.534766E+001 -3.538672E+001  1.539160E+001 -3.536133E+001  1.490430E+001 -1.309128E-001 -6.510547E+001
  17.0000     -1.423950E-001 -6.771875E+001 -3.398633E+001  1.259424E+001 -3.400391E+001  1.264209E+001 -1.394119E-001 -6.748438E+001
  17.5000     -1.485519E-001 -7.013672E+001 -3.261914E+001  1.031738E+001 -3.261914E+001  1.052490E+001 -1.599884E-001 -6.989063E+001
  18.0000     -1.721649E-001 -7.254688E+001 -3.128516E+001  7.849609E+000 -3.126172E+001  8.063965E+000 -1.667404E-001 -7.233594E+001
  18.5000     -1.842880E-001 -7.510547E+001 -2.999414E+001  5.571289E+000 -2.991895E+001  5.493164E+000 -1.816711E-001 -7.486328E+001
  19.0000     -2.013779E-001 -7.765234E+001 -2.870801E+001  3.006104E+000 -2.866992E+001  2.864624E+000 -2.042694E-001 -7.739063E+001
  19.5000     -2.258148E-001 -8.030469E+001 -2.743359E+001  4.724121E-001 -2.740234E+001  3.254700E-001 -2.265472E-001 -8.003125E+001
  20.0000     -2.384872E-001 -8.297266E+001 -2.619238E+001 -2.342896E+000 -2.617871E+001 -2.540649E+000 -2.428513E-001 -8.271094E+001
  20.5000     -2.662811E-001 -8.576563E+001 -2.497949E+001 -5.107422E+000 -2.497168E+001 -5.259766E+000 -2.695465E-001 -8.546094E+001
  21.0000     -2.907257E-001 -8.859375E+001 -2.379199E+001 -7.994141E+000 -2.376465E+001 -8.078125E+000 -2.938843E-001 -8.829688E+001
  21.5000     -3.220978E-001 -9.152734E+001 -2.261719E+001 -1.087109E+001 -2.260840E+001 -1.098535E+001 -3.188782E-001 -9.119922E+001
  22.0000     -3.614197E-001 -9.450000E+001 -2.148047E+001 -1.389111E+001 -2.146094E+001 -1.402002E+001 -3.638916E-001 -9.418359E+001
  22.5000     -3.935699E-001 -9.762109E+001 -2.033398E+001 -1.717090E+001 -2.032910E+001 -1.711816E+001 -3.956299E-001 -9.728906E+001
  23.0000     -4.394531E-001 -1.007969E+002 -1.923145E+001 -2.037598E+001 -1.921875E+001 -2.047461E+001 -4.451904E-001 -1.004766E+002
  23.5000     -4.894257E-001 -1.040703E+002 -1.815137E+001 -2.359863E+001 -1.812793E+001 -2.383398E+001 -4.939728E-001 -1.037656E+002
  24.0000     -5.559082E-001 -1.075273E+002 -1.705762E+001 -2.722461E+001 -1.705664E+001 -2.731152E+001 -5.548096E-001 -1.071484E+002
  24.5000     -6.192932E-001 -1.110547E+002 -1.602344E+001 -3.087305E+001 -1.599609E+001 -3.091602E+001 -6.184082E-001 -1.106602E+002
  25.0000     -7.064819E-001 -1.146953E+002 -1.498633E+001 -3.467773E+001 -1.497803E+001 -3.474414E+001 -7.016907E-001 -1.143789E+002
  25.5000     -7.953491E-001 -1.185156E+002 -1.399121E+001 -3.854297E+001 -1.396631E+001 -3.862109E+001 -7.896729E-001 -1.181719E+002
  26.0000     -8.968201E-001 -1.225000E+002 -1.297314E+001 -4.268945E+001 -1.299316E+001 -4.270117E+001 -9.045715E-001 -1.221289E+002
  26.5000     -1.026428E+000 -1.266367E+002 -1.202344E+001 -4.686523E+001 -1.201807E+001 -4.698047E+001 -1.020264E+000 -1.262148E+002
  27.0000     -1.177734E+000 -1.308750E+002 -1.109375E+001 -5.123438E+001 -1.108838E+001 -5.132813E+001 -1.171631E+000 -1.304844E+002
  27.5000     -1.346436E+000 -1.353281E+002 -1.018408E+001 -5.586719E+001 -1.017383E+001 -5.593164E+001 -1.343933E+000 -1.349375E+002
  28.0000     -1.552612E+000 -1.399453E+002 -9.312012E+000 -6.063086E+001 -9.308594E+000 -6.067188E+001 -1.542175E+000 -1.395156E+002
  28.5000     -1.787659E+000 -1.446484E+002 -8.477539E+000 -6.552734E+001 -8.465820E+000 -6.562891E+001 -1.776672E+000 -1.442656E+002
  29.0000     -2.059570E+000 -1.495547E+002 -7.666260E+000 -7.058594E+001 -7.675781E+000 -7.071875E+001 -2.054932E+000 -1.491563E+002
  29.5000     -2.377686E+000 -1.546250E+002 -6.914551E+000 -7.587109E+001 -6.912354E+000 -7.592188E+001 -2.370361E+000 -1.542109E+002
  30.0000     -2.746338E+000 -1.597813E+002 -6.208984E+000 -8.125000E+001 -6.199463E+000 -8.127344E+001 -2.737915E+000 -1.593516E+002
  30.5000     -3.164185E+000 -1.649844E+002 -5.546631E+000 -8.665625E+001 -5.540283E+000 -8.673047E+001 -3.150513E+000 -1.646016E+002
  31.0000     -3.648560E+000 -1.704531E+002 -4.915771E+000 -9.234375E+001 -4.911621E+000 -9.242969E+001 -3.633789E+000 -1.700313E+002
  31.5000     -4.187256E+000 -1.757266E+002 -4.367432E+000 -9.792578E+001 -4.365967E+000 -9.801563E+001 -4.168945E+000 -1.753281E+002
  32.0000     -4.783447E+000  1.789375E+002 -3.869019E+000 -1.035430E+002 -3.862549E+000 -1.036055E+002 -4.763184E+000  1.793281E+002
  32.5000     -5.436035E+000  1.736563E+002 -3.412476E+000 -1.090586E+002 -3.410522E+000 -1.091016E+002 -5.416748E+000  1.741016E+002
  33.0000     -6.157715E+000  1.685234E+002 -3.015137E+000 -1.146016E+002 -3.013672E+000 -1.146133E+002 -6.136475E+000  1.688906E+002
  33.5000     -6.938477E+000  1.634766E+002 -2.673828E+000 -1.199883E+002 -2.660767E+000 -1.200156E+002 -6.915527E+000  1.638047E+002
  34.0000     -7.782715E+000  1.585625E+002 -2.364990E+000 -1.252344E+002 -2.359131E+000 -1.252578E+002 -7.758545E+000  1.588984E+002
  34.5000     -8.680664E+000  1.538984E+002 -2.102295E+000 -1.303281E+002 -2.097046E+000 -1.303984E+002 -8.657715E+000  1.541094E+002
  35.0000     -9.646484E+000  1.494219E+002 -1.874878E+000 -1.352656E+002 -1.875244E+000 -1.353359E+002 -9.625977E+000  1.495313E+002
  35.5000     -1.065869E+001  1.451250E+002 -1.681458E+000 -1.400391E+002 -1.677490E+000 -1.401250E+002 -1.064111E+001  1.451719E+002
  36.0000     -1.174072E+001  1.411641E+002 -1.516663E+000 -1.446016E+002 -1.512268E+000 -1.447031E+002 -1.171729E+001  1.410938E+002
  36.5000     -1.287549E+001  1.372656E+002 -1.381042E+000 -1.490781E+002 -1.376038E+000 -1.491328E+002 -1.285205E+001  1.370703E+002
  37.0000     -1.406445E+001  1.337344E+002 -1.265991E+000 -1.532500E+002 -1.258606E+000 -1.533047E+002 -1.405371E+001  1.334297E+002
  37.5000     -1.531592E+001  1.304453E+002 -1.161377E+000 -1.572734E+002 -1.161621E+000 -1.573594E+002 -1.532617E+001  1.299141E+002
  38.0000     -1.665430E+001  1.274102E+002 -1.075439E+000 -1.611328E+002 -1.070374E+000 -1.611953E+002 -1.666211E+001  1.267539E+002
  38.5000     -1.805566E+001  1.247109E+002 -9.974976E-001 -1.648594E+002 -1.002625E+000 -1.648750E+002 -1.809961E+001  1.237109E+002
  39.0000     -1.956152E+001  1.223281E+002 -9.452820E-001 -1.684141E+002 -9.386597E-001 -1.684141E+002 -1.961914E+001  1.210469E+002
  39.5000     -2.117676E+001  1.204375E+002 -8.925171E-001 -1.717734E+002 -8.847961E-001 -1.718281E+002 -2.126367E+001  1.186289E+002
  40.0000     -2.290430E+001  1.187422E+002 -8.427124E-001 -1.750391E+002 -8.444519E-001 -1.750859E+002 -2.304492E+001  1.163867E+002
  40.5000     -2.479395E+001  1.177500E+002 -7.981567E-001 -1.781641E+002 -7.995911E-001 -1.782188E+002 -2.503516E+001  1.147617E+002
  41.0000     -2.689844E+001  1.175898E+002 -7.717896E-001  1.788438E+002 -7.670593E-001  1.787969E+002 -2.725684E+001  1.136133E+002
  41.5000     -2.928320E+001  1.186602E+002 -7.361145E-001  1.759922E+002 -7.322998E-001  1.759297E+002 -2.984961E+001  1.132734E+002
  42.0000     -3.203711E+001  1.219883E+002 -7.104797E-001  1.731797E+002 -7.072449E-001  1.731406E+002 -3.300781E+001  1.146016E+002
  42.5000     -3.531641E+001  1.294766E+002 -6.871948E-001  1.705156E+002 -6.824646E-001  1.704766E+002 -3.713477E+001  1.197070E+002
  43.0000     -3.900586E+001  1.461250E+002 -6.661987E-001  1.679375E+002 -6.612244E-001  1.678906E+002 -4.300000E+001  1.374844E+002
  43.5000     -4.152148E+001  1.795000E+002 -6.441040E-001  1.654688E+002 -6.426392E-001  1.654063E+002 -4.691211E+001 -1.589844E+002
  44.0000     -4.055859E+001 -1.465000E+002 -6.281433E-001  1.630313E+002 -6.206665E-001  1.629297E+002 -4.189063E+001 -1.169258E+002
  44.5000     -3.813477E+001 -1.279531E+002 -6.091919E-001  1.606875E+002 -6.127319E-001  1.606172E+002 -3.810742E+001 -1.061133E+002
  45.0000     -3.612500E+001 -1.196367E+002 -5.881958E-001  1.584609E+002 -5.955505E-001  1.583750E+002 -3.569727E+001 -1.025039E+002
  45.5000     -3.463086E+001 -1.155313E+002 -5.777588E-001  1.562266E+002 -5.737305E-001  1.562188E+002 -3.404688E+001 -1.008711E+002
  46.0000     -3.353516E+001 -1.132578E+002 -5.636597E-001  1.541250E+002 -5.559998E-001  1.540938E+002 -3.289648E+001 -1.006094E+002
  46.5000     -3.269922E+001 -1.119453E+002 -5.546570E-001  1.520469E+002 -5.519409E-001  1.520313E+002 -3.201367E+001 -1.005898E+002
  47.0000     -3.209961E+001 -1.111836E+002 -5.367432E-001  1.500625E+002 -5.372620E-001  1.500469E+002 -3.138086E+001 -1.009102E+002
  47.5000     -3.167090E+001 -1.109883E+002 -5.244446E-001  1.481328E+002 -5.249023E-001  1.481016E+002 -3.091602E+001 -1.010508E+002
  48.0000     -3.138281E+001 -1.108359E+002 -5.118103E-001  1.462500E+002 -5.129700E-001  1.461953E+002 -3.057520E+001 -1.013477E+002
  48.5000     -3.119043E+001 -1.107266E+002 -5.078430E-001  1.443984E+002 -5.088196E-001  1.443281E+002 -3.035254E+001 -1.017773E+002
  49.0000     -3.110059E+001 -1.106875E+002 -4.955444E-001  1.425859E+002 -4.936066E-001  1.425625E+002 -3.021582E+001 -1.019180E+002
  49.5000     -3.105762E+001 -1.105938E+002 -4.864960E-001  1.408359E+002 -4.843292E-001  1.407656E+002 -3.013965E+001 -1.020781E+002
  50.0000     -3.111719E+001 -1.104297E+002 -4.791870E-001  1.391094E+002 -4.756927E-001  1.391016E+002 -3.011914E+001 -1.020039E+002
  50.5000     -3.121582E+001 -1.101758E+002 -4.620056E-001  1.374922E+002 -4.650421E-001  1.374766E+002 -3.017871E+001 -1.020234E+002
  51.0000     -3.138770E+001 -1.096953E+002 -4.558105E-001  1.358672E+002 -4.604950E-001  1.357969E+002 -3.027734E+001 -1.017227E+002
  51.5000     -3.161523E+001 -1.092813E+002 -4.526825E-001  1.342422E+002 -4.501038E-001  1.342266E+002 -3.040625E+001 -1.012227E+002
  52.0000     -3.185352E+001 -1.086016E+002 -4.338531E-001  1.327031E+002 -4.421234E-001  1.326719E+002 -3.055859E+001 -1.005586E+002
  52.5000     -3.212500E+001 -1.076563E+002 -4.347229E-001  1.311797E+002 -4.323273E-001  1.311797E+002 -3.073730E+001 -9.990625E+001
  53.0000     -3.246680E+001 -1.063594E+002 -4.267731E-001  1.296641E+002 -4.281006E-001  1.297031E+002 -3.097754E+001 -9.873438E+001
  53.5000     -3.281641E+001 -1.047813E+002 -4.177246E-001  1.282656E+002 -4.181824E-001  1.282578E+002 -3.123242E+001 -9.745703E+001
  54.0000     -3.320508E+001 -1.029258E+002 -4.121704E-001  1.268555E+002 -4.113922E-001  1.268281E+002 -3.149316E+001 -9.617578E+001
  54.5000     -3.359180E+001 -1.004883E+002 -4.076233E-001  1.254570E+002 -4.100952E-001  1.254414E+002 -3.172363E+001 -9.435156E+001
  55.0000     -3.400195E+001 -9.771875E+001 -3.963623E-001  1.240938E+002 -4.030304E-001  1.241328E+002 -3.200977E+001 -9.235547E+001
  55.5000     -3.437500E+001 -9.472656E+001 -3.896637E-001  1.227578E+002 -3.966370E-001  1.227383E+002 -3.227539E+001 -9.008203E+001
  56.0000     -3.475781E+001 -9.131641E+001 -3.811646E-001  1.214688E+002 -3.876343E-001  1.214766E+002 -3.253516E+001 -8.738672E+001
  56.5000     -3.509180E+001 -8.689063E+001 -3.782196E-001  1.201680E+002 -3.765717E-001  1.201602E+002 -3.275781E+001 -8.447266E+001
  57.0000     -3.536133E+001 -8.214453E+001 -3.744507E-001  1.189336E+002 -3.804779E-001  1.189219E+002 -3.293750E+001 -8.126953E+001
  57.5000     -3.557813E+001 -7.743359E+001 -3.688965E-001  1.177070E+002 -3.643951E-001  1.176758E+002 -3.307617E+001 -7.775391E+001
  58.0000     -3.563867E+001 -7.200391E+001 -3.536530E-001  1.165430E+002 -3.633423E-001  1.164766E+002 -3.319922E+001 -7.423438E+001
  58.5000     -3.566406E+001 -6.650391E+001 -3.563538E-001  1.153750E+002 -3.576050E-001  1.153359E+002 -3.327734E+001 -7.044922E+001
  59.0000     -3.558789E+001 -6.096094E+001 -3.571930E-001  1.141797E+002 -3.578796E-001  1.141719E+002 -3.326953E+001 -6.670703E+001
  59.5000     -3.536523E+001 -5.590625E+001 -3.485107E-001  1.130547E+002 -3.491974E-001  1.130234E+002 -3.321094E+001 -6.283398E+001
  60.0000     -3.509570E+001 -5.102344E+001 -3.453827E-001  1.119570E+002 -3.466187E-001  1.119180E+002 -3.310352E+001 -5.910938E+001
  60.5000     -3.475977E+001 -4.670313E+001 -3.394165E-001  1.108516E+002 -3.369293E-001  1.108008E+002 -3.292188E+001 -5.564063E+001
  61.0000     -3.433203E+001 -4.273438E+001 -3.366547E-001  1.097266E+002 -3.370209E-001  1.097461E+002 -3.270313E+001 -5.233008E+001
  61.5000     -3.386719E+001 -3.940625E+001 -3.292084E-001  1.086797E+002 -3.305054E-001  1.087188E+002 -3.245703E+001 -4.926367E+001
  62.0000     -3.342383E+001 -3.633203E+001 -3.240662E-001  1.076602E+002 -3.276062E-001  1.076406E+002 -3.221289E+001 -4.608398E+001
  62.5000     -3.299805E+001 -3.366992E+001 -3.245697E-001  1.066719E+002 -3.216858E-001  1.066445E+002 -3.189648E+001 -4.340625E+001
  63.0000     -3.256445E+001 -3.125000E+001 -3.271942E-001  1.056602E+002 -3.215485E-001  1.056367E+002 -3.158887E+001 -4.124023E+001
  63.5000     -3.206445E+001 -2.924023E+001 -3.135529E-001  1.046602E+002 -3.148804E-001  1.046602E+002 -3.126074E+001 -3.918359E+001
  64.0000     -3.160156E+001 -2.770215E+001 -3.128662E-001  1.036992E+002 -3.125458E-001  1.037305E+002 -3.096191E+001 -3.723047E+001
  64.5000     -3.117871E+001 -2.629590E+001 -3.086853E-001  1.027734E+002 -3.065643E-001  1.027227E+002 -3.060742E+001 -3.539063E+001
  65.0000     -3.078223E+001 -2.506445E+001 -3.037262E-001  1.018281E+002 -3.064270E-001  1.017891E+002 -3.032227E+001 -3.397070E+001
  65.5000     -3.037500E+001 -2.401953E+001 -3.011475E-001  1.008750E+002 -3.021088E-001  1.008672E+002 -2.998633E+001 -3.258984E+001
  66.0000     -3.000488E+001 -2.322949E+001 -3.000946E-001  1.000234E+002 -2.957306E-001  1.000000E+002 -2.966309E+001 -3.147461E+001
  66.5000     -2.965625E+001 -2.271973E+001 -2.994995E-001  9.914453E+001 -2.994537E-001  9.905469E+001 -2.938379E+001 -3.053711E+001
  67.0000     -2.929102E+001 -2.208984E+001 -2.931976E-001  9.820703E+001 -2.899475E-001  9.822656E+001 -2.905957E+001 -2.952734E+001
  67.5000     -2.893945E+001 -2.166992E+001 -2.885590E-001  9.735938E+001 -2.874603E-001  9.735938E+001 -2.877344E+001 -2.902930E+001
  68.0000     -2.864648E+001 -2.114355E+001 -2.881470E-001  9.651563E+001 -2.897034E-001  9.651953E+001 -2.850879E+001 -2.836426E+001
  68.5000     -2.834766E+001 -2.099121E+001 -2.862244E-001  9.569922E+001 -2.863617E-001  9.567188E+001 -2.822559E+001 -2.773730E+001
  69.0000     -2.803223E+001 -2.093066E+001 -2.825470E-001  9.482031E+001 -2.828674E-001  9.483984E+001 -2.796875E+001 -2.735254E+001
  69.5000     -2.777734E+001 -2.076172E+001 -2.796936E-001  9.403516E+001 -2.786865E-001  9.405078E+001 -2.773926E+001 -2.688379E+001
  70.0000     -2.750098E+001 -2.067773E+001 -2.783203E-001  9.326953E+001 -2.746429E-001  9.328516E+001 -2.748047E+001 -2.656934E+001
  70.5000     -2.725684E+001 -2.063379E+001 -2.689056E-001  9.245703E+001 -2.723083E-001  9.243750E+001 -2.725977E+001 -2.635352E+001
  71.0000     -2.700977E+001 -2.060547E+001 -2.689972E-001  9.169141E+001 -2.692719E-001  9.168750E+001 -2.701758E+001 -2.618066E+001
  71.5000     -2.677734E+001 -2.083301E+001 -2.675629E-001  9.092188E+001 -2.702789E-001  9.091797E+001 -2.682324E+001 -2.603027E+001
  72.0000     -2.656055E+001 -2.083887E+001 -2.722168E-001  9.014453E+001 -2.672882E-001  9.015234E+001 -2.661914E+001 -2.592285E+001
  72.5000     -2.633691E+001 -2.097070E+001 -2.650452E-001  8.945703E+001 -2.663269E-001  8.941797E+001 -2.640137E+001 -2.575684E+001
