!Created: 12-14-2011 at 11:41:12
!MODEL: SHP-25+
!AP#111410
!Run/Lot/Date Code: MUU9660/NA/1129
!Fixture/SN/Due: NA/NA/NA
!Connection: Port 1-SMA_F OF DUT; Port 2-SMA_M OF DUT
!S/N: Unit 1
!Network Analyzer: AG N3383A, S/N 74302, CAL DUE: 07/07/2012
# MHZ S DB R 50
!Frequency        S11 dB  S11 DEG   S21 dB  S21 DEG   S12 dB  S12 DEG   S22 dB  S22 DEG
    .5000      8.323216E-004 -2.447309E+000 -1.106143E+002  1.701322E+002 -1.098027E+002  1.717190E+002  1.733683E-002 -2.420947E+000
   1.0000      9.597477E-004 -4.899055E+000 -1.056066E+002  9.790858E+001 -1.095566E+002 -1.249071E+002  1.425157E-002 -4.829350E+000
   1.5000     -7.570283E-004 -7.354043E+000 -1.024598E+002  1.668815E+001 -1.080613E+002 -1.362463E+002  1.263535E-002 -7.250800E+000
   2.0000      3.738333E-004 -9.810181E+000 -1.176725E+002 -1.095695E+002 -1.069588E+002 -6.747547E+000  1.201242E-002 -9.676790E+000
   2.5000     -1.368354E-003 -1.227738E+001 -1.131524E+002  7.849712E+001 -1.095780E+002 -1.311265E+002  9.394747E-003 -1.211321E+001
   3.0000     -2.156741E-003 -1.474241E+001 -1.014617E+002 -1.198483E+002 -1.038503E+002 -1.194835E+002  7.354401E-003 -1.454644E+001
   3.5000     -2.191754E-003 -1.723130E+001 -1.036449E+002 -1.084088E+002 -1.081890E+002 -7.751902E+001  5.581482E-003 -1.699338E+001
   4.0000     -2.570080E-003 -1.972195E+001 -9.828870E+001 -9.256946E+001 -1.008072E+002 -1.309289E+002  2.914978E-003 -1.944374E+001
   4.5000     -4.770127E-003 -2.223523E+001 -1.080987E+002  5.379735E+001 -1.073173E+002 -1.335301E+002  2.580215E-003 -2.192128E+001
   5.0000     -6.329766E-003 -2.474642E+001 -1.029377E+002 -1.009896E+002 -1.030337E+002 -1.026237E+002 -8.517648E-004 -2.440276E+001
   5.5000     -7.554805E-003 -2.728559E+001 -9.851810E+001 -1.017421E+002 -9.961674E+001 -9.960289E+001 -2.474353E-003 -2.690408E+001
   6.0000     -9.039233E-003 -2.984126E+001 -9.399025E+001 -1.404123E+002 -9.294044E+001 -1.160023E+002 -5.344748E-003 -2.942358E+001
   6.5000     -9.708757E-003 -3.242184E+001 -9.115217E+001 -1.200137E+002 -9.119569E+001 -1.172417E+002 -7.425743E-003 -3.195315E+001
   7.0000     -1.223406E-002 -3.501089E+001 -8.983839E+001 -1.266563E+002 -8.826204E+001 -1.202333E+002 -1.172525E-002 -3.451608E+001
   7.5000     -1.469237E-002 -3.763246E+001 -8.498283E+001 -1.293426E+002 -8.453072E+001 -1.236697E+002 -1.366206E-002 -3.709178E+001
   8.0000     -1.694936E-002 -4.028630E+001 -8.232394E+001 -1.335428E+002 -8.240676E+001 -1.344633E+002 -1.726264E-002 -3.970279E+001
   8.5000     -1.931752E-002 -4.296294E+001 -7.877729E+001 -1.346394E+002 -7.945158E+001 -1.362958E+002 -2.120396E-002 -4.233321E+001
   9.0000     -2.212457E-002 -4.568216E+001 -7.626997E+001 -1.382446E+002 -7.622602E+001 -1.400007E+002 -2.360317E-002 -4.499985E+001
   9.5000     -2.532476E-002 -4.841923E+001 -7.339555E+001 -1.428215E+002 -7.329988E+001 -1.412504E+002 -2.851773E-002 -4.769683E+001
  10.0000     -3.316191E-002 -5.121494E+001 -7.041605E+001 -1.437183E+002 -7.040050E+001 -1.447692E+002 -4.365214E-002 -5.047300E+001
  10.5000     -3.707110E-002 -5.404976E+001 -6.783978E+001 -1.473195E+002 -6.780666E+001 -1.476331E+002 -4.720525E-002 -5.325600E+001
  11.0000     -4.066531E-002 -5.692046E+001 -6.493443E+001 -1.505337E+002 -6.500340E+001 -1.502303E+002 -5.296097E-002 -5.607398E+001
  11.5000     -4.488434E-002 -5.985398E+001 -6.223555E+001 -1.528132E+002 -6.224200E+001 -1.526228E+002 -5.750613E-002 -5.894597E+001
  12.0000     -5.039725E-002 -6.283470E+001 -5.963300E+001 -1.564390E+002 -5.960737E+001 -1.563642E+002 -6.284324E-002 -6.186676E+001
  12.5000     -5.492754E-002 -6.588522E+001 -5.706207E+001 -1.591884E+002 -5.699855E+001 -1.588232E+002 -6.874498E-002 -6.484505E+001
  13.0000     -6.023481E-002 -6.898577E+001 -5.446920E+001 -1.621815E+002 -5.451683E+001 -1.620782E+002 -7.581415E-002 -6.787888E+001
  13.5000     -6.574213E-002 -7.215369E+001 -5.205315E+001 -1.654020E+002 -5.200074E+001 -1.651732E+002 -8.238494E-002 -7.098668E+001
  14.0000     -7.206430E-002 -7.541180E+001 -4.958607E+001 -1.687669E+002 -4.958512E+001 -1.684760E+002 -8.929078E-002 -7.416273E+001
  14.5000     -7.869600E-002 -7.876253E+001 -4.719904E+001 -1.719846E+002 -4.719022E+001 -1.717259E+002 -9.751320E-002 -7.743066E+001
  15.0000     -8.587285E-002 -8.220279E+001 -4.484741E+001 -1.753925E+002 -4.483303E+001 -1.751531E+002 -1.064224E-001 -8.078294E+001
  15.5000     -9.263607E-002 -8.575243E+001 -4.253722E+001 -1.788389E+002 -4.253605E+001 -1.786568E+002 -1.159760E-001 -8.423547E+001
  16.0000     -1.020549E-001 -8.942720E+001 -4.026126E+001  1.775072E+002 -4.025146E+001  1.776447E+002 -1.254755E-001 -8.779979E+001
  16.5000     -1.129641E-001 -9.321345E+001 -3.801802E+001  1.737309E+002 -3.799807E+001  1.738894E+002 -1.363633E-001 -9.148467E+001
  17.0000     -1.232767E-001 -9.716911E+001 -3.578609E+001  1.697968E+002 -3.577575E+001  1.699271E+002 -1.484564E-001 -9.531798E+001
  17.5000     -1.378050E-001 -1.012915E+002 -3.358178E+001  1.657008E+002 -3.357227E+001  1.658653E+002 -1.632403E-001 -9.930804E+001
  18.0000     -1.506926E-001 -1.056186E+002 -3.140103E+001  1.614372E+002 -3.138697E+001  1.615525E+002 -1.781501E-001 -1.034771E+002
  18.5000     -1.668125E-001 -1.101616E+002 -2.922496E+001  1.568920E+002 -2.921346E+001  1.570572E+002 -1.962629E-001 -1.078549E+002
  19.0000     -1.892874E-001 -1.149542E+002 -2.706241E+001  1.521891E+002 -2.705045E+001  1.523219E+002 -2.200047E-001 -1.124765E+002
  19.5000     -2.144735E-001 -1.200651E+002 -2.490310E+001  1.471067E+002 -2.489271E+001  1.472589E+002 -2.449457E-001 -1.173761E+002
  20.0000     -2.465304E-001 -1.255366E+002 -2.274600E+001  1.416864E+002 -2.273397E+001  1.418276E+002 -2.775662E-001 -1.226194E+002
  20.5000     -2.900927E-001 -1.314534E+002 -2.058731E+001  1.358238E+002 -2.057438E+001  1.359752E+002 -3.209127E-001 -1.282707E+002
  21.0000     -3.482150E-001 -1.378779E+002 -1.842341E+001  1.294623E+002 -1.841139E+001  1.296164E+002 -3.810528E-001 -1.343969E+002
  21.5000     -4.313774E-001 -1.449582E+002 -1.625678E+001  1.224643E+002 -1.624386E+001  1.226084E+002 -4.649973E-001 -1.411267E+002
  22.0000     -5.526926E-001 -1.528340E+002 -1.408824E+001  1.146893E+002 -1.407488E+001  1.148419E+002 -5.867927E-001 -1.485863E+002
  22.5000     -7.394560E-001 -1.616859E+002 -1.193201E+001  1.059621E+002 -1.191811E+001  1.060993E+002 -7.706778E-001 -1.569638E+002
  23.0000     -1.028659E+000 -1.717400E+002 -9.810721E+000  9.608723E+001 -9.794382E+000  9.619325E+001 -1.054805E+000 -1.664311E+002
  23.5000     -1.480096E+000  1.767870E+002 -7.761189E+000  8.482513E+001 -7.746741E+000  8.493409E+001 -1.504624E+000 -1.771707E+002
  24.0000     -2.194180E+000  1.637413E+002 -5.857399E+000  7.207381E+001 -5.842519E+000  7.215528E+001 -2.214019E+000  1.707058E+002
  24.5000     -3.297049E+000  1.491833E+002 -4.181761E+000  5.792582E+001 -4.168486E+000  5.799655E+001 -3.308368E+000  1.573588E+002
  25.0000     -4.940813E+000  1.334649E+002 -2.820999E+000  4.278267E+001 -2.813193E+000  4.283359E+001 -4.935949E+000  1.433164E+002
  25.5000     -7.277208E+000  1.172485E+002 -1.829261E+000  2.738766E+001 -1.822933E+000  2.741063E+001 -7.239951E+000  1.295557E+002
  26.0000     -1.046603E+001  1.011036E+002 -1.184856E+000  1.253975E+001 -1.180776E+000  1.255873E+001 -1.036367E+001  1.173833E+002
  26.5000     -1.481665E+001  8.487564E+001 -8.103043E-001 -1.187897E+000 -8.068116E-001 -1.169947E+000 -1.454533E+001  1.086118E+002
  27.0000     -2.127102E+001  6.587712E+001 -6.173854E-001 -1.356021E+001 -6.153597E-001 -1.354427E+001 -2.038038E+001  1.080978E+002
  27.5000     -3.338935E+001  8.242734E+000 -5.288306E-001 -2.462538E+001 -5.271268E-001 -2.461736E+001 -2.799026E+001  1.416005E+002
  28.0000     -2.685135E+001 -9.965834E+001 -4.933634E-001 -3.453955E+001 -4.928336E-001 -3.452505E+001 -2.580367E+001 -1.589422E+002
  28.5000     -2.194952E+001 -1.193128E+002 -4.795645E-001 -4.350490E+001 -4.779565E-001 -4.348948E+001 -2.189330E+001 -1.485769E+002
  29.0000     -1.979114E+001 -1.307240E+002 -4.741547E-001 -5.171046E+001 -4.725321E-001 -5.168765E+001 -1.990673E+001 -1.498721E+002
  29.5000     -1.877670E+001 -1.397526E+002 -4.663847E-001 -5.927742E+001 -4.660675E-001 -5.926431E+001 -1.894994E+001 -1.538747E+002
  30.0000     -1.840071E+001 -1.475996E+002 -4.567503E-001 -6.634609E+001 -4.553208E-001 -6.632574E+001 -1.860591E+001 -1.586722E+002
  30.5000     -1.845730E+001 -1.546689E+002 -4.429782E-001 -7.297906E+001 -4.418704E-001 -7.296159E+001 -1.868324E+001 -1.636347E+002
  31.0000     -1.883506E+001 -1.611532E+002 -4.268129E-001 -7.925475E+001 -4.239787E-001 -7.922610E+001 -1.908234E+001 -1.685361E+002
  31.5000     -1.949190E+001 -1.671332E+002 -4.063616E-001 -8.520549E+001 -4.065447E-001 -8.518763E+001 -1.976061E+001 -1.732364E+002
  32.0000     -2.041013E+001 -1.727176E+002 -3.893443E-001 -9.087685E+001 -3.893906E-001 -9.086570E+001 -2.070757E+001 -1.776835E+002
  32.5000     -2.160576E+001 -1.778793E+002 -3.707355E-001 -9.629379E+001 -3.697258E-001 -9.627985E+001 -2.193157E+001  1.782964E+002
  33.0000     -2.311516E+001  1.774159E+002 -3.545505E-001 -1.014759E+002 -3.530478E-001 -1.014689E+002 -2.348345E+001  1.747914E+002
  33.5000     -2.503219E+001  1.731825E+002 -3.387231E-001 -1.064656E+002 -3.379213E-001 -1.064449E+002 -2.545060E+001  1.721312E+002
  34.0000     -2.754284E+001  1.697604E+002 -3.251392E-001 -1.112264E+002 -3.250756E-001 -1.112279E+002 -2.802155E+001  1.709586E+002
  34.5000     -3.105481E+001  1.679552E+002 -3.139419E-001 -1.158249E+002 -3.149556E-001 -1.158188E+002 -3.158069E+001  1.732749E+002
  35.0000     -3.677494E+001  1.714854E+002 -3.058425E-001 -1.202315E+002 -3.052661E-001 -1.202261E+002 -3.691817E+001 -1.725303E+002
  35.5000     -4.772931E+001 -1.267233E+002 -2.983613E-001 -1.244714E+002 -2.979718E-001 -1.244753E+002 -4.103565E+001 -1.123450E+002
  36.0000     -3.776322E+001 -5.145490E+001 -2.936057E-001 -1.285625E+002 -2.924441E-001 -1.285746E+002 -3.547105E+001 -6.919086E+001
  36.5000     -3.210889E+001 -4.651716E+001 -2.885729E-001 -1.325087E+002 -2.889006E-001 -1.325044E+002 -3.113765E+001 -6.000626E+001
  37.0000     -2.882611E+001 -4.723135E+001 -2.874652E-001 -1.363053E+002 -2.873396E-001 -1.362962E+002 -2.827397E+001 -5.837931E+001
  37.5000     -2.657648E+001 -4.934941E+001 -2.852040E-001 -1.399582E+002 -2.859372E-001 -1.399681E+002 -2.620736E+001 -5.905147E+001
  38.0000     -2.489536E+001 -5.198709E+001 -2.865812E-001 -1.435013E+002 -2.869482E-001 -1.434981E+002 -2.464609E+001 -6.071472E+001
  38.5000     -2.358325E+001 -5.477856E+001 -2.874764E-001 -1.469182E+002 -2.870387E-001 -1.469093E+002 -2.340377E+001 -6.282907E+001
  39.0000     -2.252008E+001 -5.763163E+001 -2.892164E-001 -1.502215E+002 -2.878126E-001 -1.502088E+002 -2.239901E+001 -6.517313E+001
  39.5000     -2.164400E+001 -6.047404E+001 -2.903488E-001 -1.534087E+002 -2.891027E-001 -1.534076E+002 -2.156555E+001 -6.761541E+001
  40.0000     -2.091960E+001 -6.328828E+001 -2.916823E-001 -1.565047E+002 -2.924961E-001 -1.564986E+002 -2.086974E+001 -7.008180E+001
  40.5000     -2.030590E+001 -6.604500E+001 -2.932155E-001 -1.594941E+002 -2.936466E-001 -1.594917E+002 -2.028610E+001 -7.260717E+001
  41.0000     -1.978843E+001 -6.873466E+001 -2.957681E-001 -1.623929E+002 -2.967239E-001 -1.623916E+002 -1.978530E+001 -7.508654E+001
  41.5000     -1.934198E+001 -7.136896E+001 -2.982202E-001 -1.652134E+002 -2.983965E-001 -1.652026E+002 -1.935769E+001 -7.754384E+001
  42.0000     -1.896217E+001 -7.394206E+001 -3.005369E-001 -1.679321E+002 -3.007573E-001 -1.679289E+002 -1.899526E+001 -7.996017E+001
  42.5000     -1.863922E+001 -7.643969E+001 -3.027457E-001 -1.705848E+002 -3.020714E-001 -1.705846E+002 -1.868516E+001 -8.233828E+001
  43.0000     -1.836026E+001 -7.888460E+001 -3.043194E-001 -1.731578E+002 -3.046455E-001 -1.731628E+002 -1.842124E+001 -8.467451E+001
  43.5000     -1.811850E+001 -8.125918E+001 -3.048975E-001 -1.756645E+002 -3.067586E-001 -1.756668E+002 -1.819552E+001 -8.694724E+001
  44.0000     -1.791447E+001 -8.357360E+001 -3.084680E-001 -1.780971E+002 -3.078272E-001 -1.781006E+002 -1.800282E+001 -8.920184E+001
  44.5000     -1.774420E+001 -8.582386E+001 -3.092377E-001  1.795359E+002 -3.076189E-001  1.795335E+002 -1.784046E+001 -9.138051E+001
  45.0000     -1.759966E+001 -8.803609E+001 -3.100197E-001  1.772249E+002 -3.083786E-001  1.772309E+002 -1.770771E+001 -9.352300E+001
  45.5000     -1.747798E+001 -9.016390E+001 -3.098966E-001  1.749814E+002 -3.093500E-001  1.749744E+002 -1.759663E+001 -9.561398E+001
  46.0000     -1.738020E+001 -9.226134E+001 -3.094156E-001  1.727858E+002 -3.115045E-001  1.727938E+002 -1.751110E+001 -9.765875E+001
  46.5000     -1.729923E+001 -9.429475E+001 -3.088173E-001  1.706458E+002 -3.103708E-001  1.706501E+002 -1.744085E+001 -9.966379E+001
  47.0000     -1.723837E+001 -9.627310E+001 -3.105759E-001  1.685662E+002 -3.109013E-001  1.685675E+002 -1.738890E+001 -1.016322E+002
  47.5000     -1.719364E+001 -9.821662E+001 -3.103492E-001  1.665258E+002 -3.115272E-001  1.665336E+002 -1.735411E+001 -1.035297E+002
  48.0000     -1.716310E+001 -1.001150E+002 -3.112842E-001  1.645350E+002 -3.096719E-001  1.645459E+002 -1.733086E+001 -1.054158E+002
  48.5000     -1.714345E+001 -1.019496E+002 -3.090611E-001  1.625886E+002 -3.095722E-001  1.626029E+002 -1.732360E+001 -1.072537E+002
  49.0000     -1.713625E+001 -1.037436E+002 -3.077090E-001  1.606986E+002 -3.089501E-001  1.607041E+002 -1.732539E+001 -1.090429E+002
  49.5000     -1.714304E+001 -1.055110E+002 -3.070494E-001  1.588438E+002 -3.078648E-001  1.588410E+002 -1.733890E+001 -1.108111E+002
  50.0000     -1.715646E+001 -1.072298E+002 -3.061202E-001  1.570172E+002 -3.056054E-001  1.570345E+002 -1.736402E+001 -1.125437E+002
  51.0000     -1.721238E+001 -1.105577E+002 -3.030914E-001  1.535102E+002 -3.044702E-001  1.535152E+002 -1.743806E+001 -1.158767E+002
  52.0000     -1.730024E+001 -1.137370E+002 -3.004149E-001  1.501371E+002 -3.007878E-001  1.501519E+002 -1.754355E+001 -1.190942E+002
  53.0000     -1.741638E+001 -1.167628E+002 -2.977127E-001  1.469084E+002 -2.980321E-001  1.469167E+002 -1.767736E+001 -1.221623E+002
  54.0000     -1.754834E+001 -1.196899E+002 -2.934710E-001  1.437969E+002 -2.945999E-001  1.438109E+002 -1.783076E+001 -1.251414E+002
  55.0000     -1.770356E+001 -1.224789E+002 -2.902479E-001  1.408116E+002 -2.905523E-001  1.408149E+002 -1.800577E+001 -1.279981E+002
  56.0000     -1.787728E+001 -1.251556E+002 -2.864756E-001  1.379314E+002 -2.876216E-001  1.379313E+002 -1.819642E+001 -1.307473E+002
  57.0000     -1.806396E+001 -1.277253E+002 -2.833333E-001  1.351513E+002 -2.821298E-001  1.351667E+002 -1.840510E+001 -1.333985E+002
  58.0000     -1.825960E+001 -1.301943E+002 -2.777980E-001  1.324794E+002 -2.790351E-001  1.324984E+002 -1.862192E+001 -1.359532E+002
  59.0000     -1.847012E+001 -1.325703E+002 -2.754316E-001  1.298971E+002 -2.760869E-001  1.299133E+002 -1.885343E+001 -1.384373E+002
  60.0000     -1.868752E+001 -1.348450E+002 -2.709581E-001  1.274006E+002 -2.718135E-001  1.274191E+002 -1.909380E+001 -1.408149E+002
  61.0000     -1.891475E+001 -1.370573E+002 -2.691111E-001  1.249952E+002 -2.683532E-001  1.250062E+002 -1.934378E+001 -1.431308E+002
  62.0000     -1.914828E+001 -1.391653E+002 -2.641418E-001  1.226636E+002 -2.648386E-001  1.226799E+002 -1.959849E+001 -1.453646E+002
  63.0000     -1.938926E+001 -1.412118E+002 -2.624225E-001  1.204022E+002 -2.612508E-001  1.204180E+002 -1.986086E+001 -1.475165E+002
  64.0000     -1.963148E+001 -1.431606E+002 -2.585683E-001  1.182115E+002 -2.570983E-001  1.182222E+002 -2.012817E+001 -1.496147E+002
  65.0000     -1.987732E+001 -1.450643E+002 -2.542775E-001  1.160970E+002 -2.553793E-001  1.161096E+002 -2.040098E+001 -1.516333E+002
  66.0000     -2.012935E+001 -1.468859E+002 -2.527415E-001  1.140388E+002 -2.514314E-001  1.140577E+002 -2.067752E+001 -1.535866E+002
  67.0000     -2.038406E+001 -1.486566E+002 -2.490656E-001  1.120517E+002 -2.494982E-001  1.120540E+002 -2.095918E+001 -1.555184E+002
  68.0000     -2.064116E+001 -1.503516E+002 -2.467804E-001  1.101025E+002 -2.468227E-001  1.101197E+002 -2.124184E+001 -1.573464E+002
  69.0000     -2.090089E+001 -1.519832E+002 -2.443695E-001  1.082270E+002 -2.441290E-001  1.082386E+002 -2.152964E+001 -1.591504E+002
  70.0000     -2.115958E+001 -1.535650E+002 -2.415098E-001  1.064062E+002 -2.411406E-001  1.064057E+002 -2.181835E+001 -1.609030E+002
  71.0000     -2.141872E+001 -1.550836E+002 -2.398802E-001  1.046203E+002 -2.401414E-001  1.046369E+002 -2.210744E+001 -1.625759E+002
  72.0000     -2.168163E+001 -1.565669E+002 -2.388677E-001  1.028837E+002 -2.376715E-001  1.029013E+002 -2.239885E+001 -1.642286E+002
  73.0000     -2.194326E+001 -1.579956E+002 -2.372630E-001  1.012023E+002 -2.371009E-001  1.012194E+002 -2.269597E+001 -1.658352E+002
  74.0000     -2.220400E+001 -1.593819E+002 -2.358831E-001  9.957175E+001 -2.336876E-001  9.957426E+001 -2.298518E+001 -1.673893E+002
  75.0000     -2.245917E+001 -1.607038E+002 -2.333128E-001  9.797742E+001 -2.321619E-001  9.798937E+001 -2.328174E+001 -1.689262E+002
  76.0000     -2.272591E+001 -1.619978E+002 -2.314120E-001  9.640636E+001 -2.310502E-001  9.642645E+001 -2.357676E+001 -1.703938E+002
  77.0000     -2.297883E+001 -1.633124E+002 -2.302597E-001  9.489852E+001 -2.297381E-001  9.491376E+001 -2.387192E+001 -1.718440E+002
  78.0000     -2.323495E+001 -1.645247E+002 -2.287768E-001  9.341499E+001 -2.281482E-001  9.342965E+001 -2.416513E+001 -1.732459E+002
  79.0000     -2.349221E+001 -1.657338E+002 -2.281654E-001  9.198350E+001 -2.265731E-001  9.197956E+001 -2.446111E+001 -1.746387E+002
  80.0000     -2.375179E+001 -1.669360E+002 -2.265837E-001  9.057627E+001 -2.264597E-001  9.057431E+001 -2.475207E+001 -1.759971E+002
  81.0000     -2.401229E+001 -1.680523E+002 -2.254110E-001  8.919996E+001 -2.254802E-001  8.920052E+001 -2.505166E+001 -1.772912E+002
  82.0000     -2.427307E+001 -1.691658E+002 -2.235431E-001  8.786338E+001 -2.237287E-001  8.786040E+001 -2.534496E+001 -1.785929E+002
  83.0000     -2.452991E+001 -1.702137E+002 -2.235715E-001  8.655091E+001 -2.235013E-001  8.655506E+001 -2.563939E+001 -1.798333E+002
  84.0000     -2.479068E+001 -1.712406E+002 -2.224641E-001  8.525883E+001 -2.214591E-001  8.527135E+001 -2.593984E+001  1.789270E+002
  85.0000     -2.505067E+001 -1.721821E+002 -2.214951E-001  8.401382E+001 -2.208668E-001  8.400712E+001 -2.623330E+001  1.777366E+002
  86.0000     -2.530019E+001 -1.731092E+002 -2.205405E-001  8.278464E+001 -2.201647E-001  8.277569E+001 -2.652970E+001  1.765759E+002
  87.0000     -2.555474E+001 -1.740191E+002 -2.203680E-001  8.157775E+001 -2.189583E-001  8.158260E+001 -2.682261E+001  1.754598E+002
  88.0000     -2.579920E+001 -1.748799E+002 -2.195687E-001  8.040675E+001 -2.177500E-001  8.041247E+001 -2.711262E+001  1.743716E+002
  89.0000     -2.604731E+001 -1.757346E+002 -2.176502E-001  7.925211E+001 -2.174512E-001  7.926083E+001 -2.739923E+001  1.732845E+002
  90.0000     -2.628764E+001 -1.765266E+002 -2.175202E-001  7.813133E+001 -2.164804E-001  7.813467E+001 -2.769200E+001  1.722334E+002
  91.0000     -2.652594E+001 -1.773286E+002 -2.157099E-001  7.702160E+001 -2.172145E-001  7.702542E+001 -2.797779E+001  1.712104E+002
  92.0000     -2.676061E+001 -1.780943E+002 -2.168531E-001  7.594537E+001 -2.153110E-001  7.594955E+001 -2.826170E+001  1.702127E+002
  93.0000     -2.699748E+001 -1.788312E+002 -2.161384E-001  7.488448E+001 -2.156258E-001  7.488215E+001 -2.853855E+001  1.692416E+002
  94.0000     -2.722007E+001 -1.795667E+002 -2.172963E-001  7.385492E+001 -2.163162E-001  7.384362E+001 -2.881547E+001  1.682323E+002
  95.0000     -2.744594E+001  1.797179E+002 -2.154916E-001  7.282401E+001 -2.164237E-001  7.283401E+001 -2.909022E+001  1.673331E+002
