!CSV A.01.01
!Keysight Technologies,P5024A,MY58100101,A.13.90.09
!Date: Friday, January 24, 2020 13:56:57
!Source: Standard

BEGIN CH1_DATA
Freq(Hz),S11(REAL),S11(IMAG),S12(REAL),S12(IMAG),S21(REAL),S21(IMAG),S22(REAL),S22(IMAG)
10000000,-0.013925249,-0.97391093,-0.00069631671,-0.0026408848,-0.00032618543,0.0030747161,-0.0095919464,-0.0042841602
10995000,-0.16721046,-0.96266001,-0.0033521203,0.0036219135,-0.0030886792,0.00090966554,-0.01113572,-0.0010913343
11990000,-0.31984755,-0.91206169,-0.0031126675,0.0030856002,0.0022604039,-0.0046950225,-0.011414408,0.0077165957
12985000,-0.47380161,-0.83937466,0.0017940596,-0.0018787654,-0.0024694232,-0.0011088472,0.0024783427,0.014556087
13980000,-0.59484565,-0.75277191,0.0027627347,-0.0007215293,0.00050698465,0.00027023364,0.00017437432,0.0041944678
14975000,-0.70484048,-0.63820517,0.00047303821,-0.00050323637,6.1094368e-005,-0.0025681588,0.012403998,0.0048473985
15970000,-0.80432874,-0.51063508,-0.00043360982,-0.00070658914,-0.00034472169,0.00058682589,0.015288179,-0.015140966
16965000,-0.87333405,-0.35943645,8.4186075e-005,-0.0016168815,-0.0010743204,-0.0010333237,0.01420134,-0.020065358
17960000,-0.91479272,-0.1957467,0.0013490285,0.0020870175,0.0017531097,-0.0013882787,0.008806861,-0.014368176
18955000,-0.92927468,-0.032558184,-0.00090872479,-0.00087768206,-0.00043056477,-0.00052621466,0.010681821,-0.010714489
19950000,-0.91194409,0.14144973,-0.00390329,-0.00075035304,0.00039708894,0.0018178193,0.0076298914,-0.016925151
20945000,-0.86582977,0.31223699,-0.0008880372,0.0014929617,0.0010155834,0.00039739787,0.01764733,-0.010993669
21940000,-0.78636318,0.47522935,-0.004168117,-0.0016955453,0.0015516939,-0.0033656515,0.001441958,0.001111527
22935000,-0.67312402,0.62512076,0.001131213,0.002529663,-0.0030070764,-0.000420292,0.0028807549,-0.017542413
23930000,-0.52974355,0.76938426,0.0018385722,-0.0018736989,0.0014206114,-0.0012928724,-0.011431559,-0.019754613
24925000,-0.3242431,0.87627792,0.0011302411,0.0023341987,0.00068858755,-0.0012409332,-0.028332258,-0.014878285
25920000,-0.094912849,0.96905643,-0.0038988765,-0.00075068866,0.0031910769,-0.0018922713,-0.019172754,-0.011013125
26915000,0.21355712,0.98004478,-0.00055748312,0.0012470598,-0.0014853058,-0.0043879566,-0.015151021,-0.013637652
27910000,0.57956797,0.88812506,0.0031641989,-0.00077289896,-0.0031916082,-0.012504566,-0.010808246,-0.013944595
28905000,1.0063668,0.55592352,0.0015076911,-0.0018694904,-0.019023078,-0.003636766,-0.001896314,-0.0048047374
29900000,1.2467169,-0.19101411,0.0017841327,-0.00073533924,-0.016908322,0.043469038,-0.019065185,-0.0066028773
30895000,0.61476618,-1.0357684,0.0005127177,-0.0017452206,0.05292609,0.017603111,-0.012635633,-0.035216566
31890000,-0.37186775,-0.86611694,-0.002562877,0.0029475833,0.05562244,-0.06110058,-0.022083757,-0.019080475
32885000,-0.64650911,-0.27391496,-0.0015462333,0.0052000131,-0.0018905625,-0.08889588,-0.0074820728,-0.011249939
33880000,-0.5540747,0.12920681,-0.00010015564,0.0024962467,-0.064110495,0.020541882,-0.012395265,-0.030674726
34875000,-0.39053288,0.33049712,-0.0018238981,-0.0019394478,-0.041010037,0.039242025,-0.022353947,-0.0079325242
35870000,-0.2206199,0.42186561,1.5833322e-005,-0.00093920616,0.018360639,0.042076226,-0.0013388603,-0.02367405
36865000,-0.072092742,0.43754658,-0.0025837808,-0.0042258068,0.0031373713,0.051733531,-0.0067047589,-0.01434488
37860000,0.057253767,0.42335859,-0.0038391517,0.0027723429,-0.02519466,0.056412973,0.0036129316,-0.0095625464
38855000,0.15425046,0.38795707,-0.0051593618,-0.0013990867,0.071673617,-0.0033590749,-0.010796571,-0.012764356
39850000,0.25376856,0.3493365,0.0011311577,-0.0014337212,0.0047922693,-0.016253455,-0.025909722,-0.0022397505
40845000,0.29022661,0.29032385,0.0057745841,-0.0014142093,0.019133562,-0.045491464,-0.0096860817,-0.0076997164
41840000,0.33769044,0.20727764,-0.0026720415,0.0010519734,-0.00035424996,-0.15440235,-0.022253854,0.0045769387
42835000,0.37677652,0.12547933,0.00033345455,0.0020888224,-0.076253615,-0.082265325,-0.016239662,-0.0032700361
43830000,0.36803824,0.048143312,-0.00059676141,-0.0018749455,-0.096806519,-0.0054750061,-0.010954873,-0.010779983
44825000,0.35565975,-0.023853313,0.0026065235,-0.0010523632,-0.15787999,0.055756986,-0.010894357,0.012143885
45820000,0.34682849,-0.093515143,-0.00048832223,-0.0026615292,-0.053065706,0.10671244,-0.027557319,-0.002373032
46815000,0.29180574,-0.16923995,0.003053203,0.0015659838,0.01791857,0.10977632,-0.029614488,0.0078968443
47810000,0.26327828,-0.21071275,-5.7189773e-005,0.0017438562,0.089081399,0.099431604,-0.015356438,0.010794091
48805000,0.20529838,-0.23525511,0.0045653405,-1.8104422e-005,0.15073214,0.023869006,-0.010804361,0.029364804
49800000,0.13836141,-0.28136164,0.0035228662,0.00076147699,0.11998161,-0.015427249,-0.0171907,0.010220679
50795000,0.080988444,-0.28150359,0.00058258494,-0.00052695372,0.04189964,-0.12967657,-0.009273733,0.0044307299
51790000,0.010181515,-0.27190211,0.0055920435,0.0055814888,0.048277456,-0.17580296,0.0012665703,-0.0045898105
52785000,-0.038376343,-0.25649008,0.00062943168,0.0012125552,-0.11023732,-0.21293919,-0.020245006,0.0057451683
53780000,-0.09909866,-0.24504845,0.0011744768,0.0015154147,-0.20718919,-0.06913922,-0.012087631,0.015108812
54775000,-0.14274222,-0.20224753,-0.00111776,0.0005030458,-0.22876294,0.028238738,0.00013693776,0.020632625
55770000,-0.17527996,-0.15603255,0.0010151652,-0.0013913268,-0.24548982,0.18977426,-0.012149162,0.011260565
56765000,-0.20540725,-0.10112015,-0.0038257607,-0.0036398906,-0.087071449,0.24940991,-0.006406588,0.014889806
57760000,-0.21607821,-0.051589556,0.0012033326,-0.00180466,0.093122497,0.2506997,-0.010373016,0.017012153
58755000,-0.21560863,0.021248849,0.00097580178,0.00057508331,0.2190409,0.15734634,-0.0034832675,0.014671425
59750000,-0.2047061,0.060257073,-0.0010464935,0.0026504707,0.28882384,0.06800063,-0.016346345,0.010454065
60745000,-0.17303102,0.10952135,0.0011919483,-0.0016166499,0.27328226,-0.12564632,-0.0057396037,0.0023699224
61740000,-0.1439669,0.15576342,-0.0024790459,0.0034496763,0.24160276,-0.25031278,0.00035532212,0.0091284662
62735000,-0.095488712,0.18831922,0.0013336472,0.0018666666,0.020388152,-0.37442049,0.013989151,0.0049069049
63730000,-0.062410802,0.21131806,0.00064392039,-0.0028147551,-0.2229908,-0.32003513,0.0043190829,0.0046883128
64725000,0.0094762957,0.21926491,-0.0030294682,0.0022559993,-0.42221671,-0.14617053,0.0064747729,-0.00064154976
65720000,0.066093586,0.22123455,-0.0017856999,0.00122783,-0.35675892,0.025335742,0.0026602333,0.016166262
66715000,0.1129753,0.19478235,-0.0018757444,-0.0006305853,-0.23634505,0.19830212,-0.002871932,0.0093668252
67710000,0.1670285,0.17604747,-0.0047978172,0.00068875746,-0.03672586,0.33896092,0.0078204274,0.0035478459
68705000,0.20747209,0.13820973,-0.0032374584,0.0010041967,0.078900836,0.346623,0.019451912,0.0096368855
69700000,0.25476366,0.088526316,-0.0018939784,-0.00046123593,0.28986719,0.2263944,0.015410118,0.012065063
70695000,0.26310793,0.047259461,0.0012840263,0.00067944423,0.28528619,0.085984752,0.008636809,0.016261289
71690000,0.29135609,-0.007523065,-0.0039302888,-0.0011024571,0.27262515,-0.10880365,0.016022073,0.0072076172
72685000,0.29026389,-0.074589215,0.0019756739,0.00048125294,0.16792409,-0.2145263,0.015997982,0.0074838544
73680000,0.271597,-0.12716757,-0.0005941799,0.0032421183,0.052694678,-0.2481852,0.017618673,0.0057903822
74675000,0.23556601,-0.20114556,0.0050978088,0.0011667084,-0.10354295,-0.20791045,0.017580481,-0.0026269581
75670000,0.21752225,-0.24601494,0.0015470919,0.001655731,-0.12522428,-0.12684107,0.026917486,-0.0020258413
76665000,0.16484334,-0.27302137,-0.0020311649,-0.0029543366,-0.17487703,-0.090556994,0.017013246,-0.024214623
77660000,0.11894482,-0.31195539,-0.00052485481,-0.00065951061,-0.15463713,-0.0097439615,0.01355546,-0.0094873775
78655000,0.045216084,-0.32667404,9.0642556e-005,-0.00039324473,-0.13143007,0.014394435,0.0068869255,-0.014903969
79650000,0.0074665174,-0.33885428,-0.0029700815,-0.004425338,-0.092995301,0.035770942,0.0097008096,0.0085739167
80645000,-0.061908394,-0.33463499,0.0019673971,0.00086062512,-0.14091481,0.08539395,0.0057965028,-0.0058404794
81640000,-0.11033749,-0.30989605,0.0012520225,0.0017301083,-0.19619811,0.10980088,0.0084909871,-0.019593462
82635000,-0.16025873,-0.28736219,-0.0022804067,-0.00078246166,-0.1195486,0.21651946,0.0066823042,-0.017604174
83630000,-0.20269421,-0.27073225,-0.0016012874,0.0017564241,0.036987629,0.26856834,0.014951748,-0.01852618
84625000,-0.23898304,-0.23106809,0.0037082236,0.0024111047,0.18971483,0.34678611,0.0127393,-0.011801703
85620000,-0.26280573,-0.17808925,-0.0023209627,0.0029366454,0.34737641,0.29820776,-0.014062478,-0.01062253
86615000,-0.29727358,-0.14041756,-0.0018095955,-0.00011734357,0.52745789,0.067378968,0.0052009285,-0.0084480168
87610000,-0.3124879,-0.091542095,-0.0024496515,-0.00032662123,0.52681124,-0.2214994,0.0042767315,-0.016649131
88605000,-0.3144289,-0.044381987,-0.0039142012,-0.0042277849,0.37494621,-0.50279349,-0.006191812,-0.026033312
89600000,-0.31817517,0.0028850192,-0.0022002012,0.0051934989,0.13055861,-0.68949991,0.0016686611,-0.016602309
90595000,-0.30994052,0.049456403,0.0031016821,-0.0017806601,-0.30319589,-0.77499813,-0.0086901663,-0.0071077566
91590000,-0.29138312,0.084001206,-0.0022861396,0.002020387,-0.72671193,-0.57993668,-0.0061602658,-0.0075937579
92585000,-0.28198504,0.12078842,-0.0011900591,0.0012936834,-0.99048263,-0.15841241,-0.0071645156,-0.022790832
93580000,-0.2564908,0.15960579,0.0012559153,0.002651776,-0.99699467,0.4148992,0.0048445319,-0.015767813
94575000,-0.21685286,0.1789719,-0.0040718764,0.0046458282,-0.71081662,0.93974632,0.0032212504,0.00058970007
95570000,-0.18336432,0.21097486,-0.0023552692,-0.0028047122,-0.19067021,1.2135929,-0.0091469679,-0.023908271
96565000,-0.16386354,0.22841565,-0.00269914,0.00027741576,0.43643042,1.1618823,-0.017457983,-0.0010265697
97560000,-0.12839885,0.24718748,-0.00038692393,8.5942542e-005,1.0936044,0.88036585,-0.024290442,-0.011982351
98555000,-0.095010236,0.24603097,0.0035781641,-0.0042524613,1.405413,0.1489549,0.0034538067,-0.029493555
99550000,-0.057800736,0.24347901,0.00056617946,-0.0032398384,1.3047402,-0.48214409,-0.007024792,-0.020010022
100545000,-0.027150964,0.24846517,-0.00353385,-0.0025117819,1.0081624,-1.1325923,-0.0094290134,-0.025513444
101540000,-0.00098325801,0.24149852,-0.00047732997,-0.0020659331,0.21708213,-1.6156567,-0.0077836323,-0.0073797046
102535000,0.021732301,0.24711116,0.00032985173,0.00073499035,-0.47068292,-1.6117436,-0.019558579,-0.015366996
103530000,0.057997394,0.22004096,-0.00028267861,-0.0030350836,-1.2264099,-1.114578,-0.017865198,0.0021529372
104525000,0.084327914,0.2218972,0.0032785453,0.0011939791,-1.5935339,-0.43756506,-0.022001607,-0.0095548332
105520000,0.10243853,0.1989789,0.0025167661,-0.0027904767,-1.6706461,0.44758177,-0.017568519,-0.0048870975
106515000,0.13585603,0.19007397,-0.0014134243,-0.0032756757,-1.2767892,1.2141099,-0.033698622,-0.0021974905
107510000,0.14241917,0.16700529,0.0013625618,0.0018577155,-0.60384732,1.6500849,-0.023716342,-0.00014281199
108505000,0.15814599,0.13649224,0.00049946533,0.0014528892,0.34674731,1.5667714,-0.031127656,0.032342639
109500000,0.16836023,0.13116597,-0.0012376861,0.0013023021,0.91078264,1.281144,-0.01937459,0.0080299303
110495000,0.16796196,0.10535043,-0.0023059573,0.00089371449,1.3053228,0.69566256,-0.0090307808,0.02024496
111490000,0.17886147,0.083184801,-0.0030103461,-0.0030883942,1.444117,0.19896941,-0.0089458441,0.0029566449
112485000,0.18642512,0.060143221,-0.001293771,0.0011551096,1.3824538,-0.28248456,-0.020028768,0.014135683
113480000,0.19423287,0.03902645,0.0018461749,0.002405321,1.1507958,-0.59590667,-0.027582509,0.024418557
114475000,0.1817831,0.024485629,0.002326607,0.0028374365,1.1057639,-0.87793607,-0.01838495,0.0079040593
115470000,0.18447423,0.00074579584,0.001513145,-0.0051005618,1.0993707,-1.3395805,-0.0014696849,0.024958311
116465000,0.18700522,-0.028719096,0.00092855637,0.00085728237,0.66667455,-2.1168547,-0.015424016,0.019934902
117460000,0.17488474,-0.037287105,0.00058108172,0.0012174426,-0.14283314,-2.8389394,-0.0013175203,0.011912382
118455000,0.17042768,-0.053807188,-0.0049208491,-0.0040392182,-1.7909447,-3.4207432,0.0024458244,0.045742698
119450000,0.14899863,-0.065255091,0.0013674075,0.0025102806,-4.2144971,-2.8763533,-0.011640806,0.0079517877
120445000,0.14000575,-0.083747789,0.0027567856,0.0016997475,-6.5126557,-0.36278129,-0.024259238,0.0099439975
121440000,0.13686736,-0.088999771,0.0001895695,-0.00044076238,-7.2258716,4.3732638,0.017835755,0.02606518
122435000,0.11889092,-0.1008865,-0.0035760135,-0.0043038358,-4.135097,9.293169,0.0072337664,0.0047879266
123430000,0.11897621,-0.10565491,-0.00056870672,0.0063583748,2.5220718,11.756622,-0.0098089343,0.020666299
124425000,0.097367905,-0.11875761,0.0025761274,-0.0024977026,10.149902,9.1615286,-0.0061223619,0.018389491
125420000,0.083882943,-0.12433179,-0.001036895,-0.002800256,15.057303,1.4836552,-0.0012199668,0.010235955
126415000,0.073295072,-0.13356771,-0.0019895085,0.0011610545,13.989354,-8.3584185,-0.008896458,0.033989877
127410000,0.063084997,-0.13752644,0.0030730802,-0.00070400571,7.0856552,-15.600562,0.030438194,0.007267972
128405000,0.057821777,-0.14133637,-7.7248413e-005,0.00016760353,-3.5123913,-17.721319,0.0028421676,0.014150244
129400000,0.027878141,-0.14760073,-0.0010413075,-0.0026627281,-12.794065,-12.994006,0.01328882,0.012087206
130395000,0.018120578,-0.14355503,-3.6927639e-005,-0.0019294784,-18.289688,-4.0985932,0.026747778,0.015286379
131390000,0.0021406952,-0.13727076,0.0042029484,-0.0015407312,-17.884794,6.201612,-0.015867153,0.01315836
132385000,-0.019770201,-0.14188859,0.00091472454,-0.0020106602,-11.752066,15.21493,-0.0099299317,0.0012155905
133380000,-0.019733129,-0.13559918,0.00016656173,-0.0043737548,-2.1928508,19.371017,0.01175519,0.052665956
134375000,-0.034718167,-0.12825881,-0.00026042378,-0.00015517417,8.0751867,17.692047,0.013245324,0.02413488
135370000,-0.03668664,-0.12819122,0.0011448296,-0.00020891261,16.464979,11.286535,-0.0061375597,0.014526687
136365000,-0.053882439,-0.13734506,0.00049571012,-0.0030689493,20.007315,0.95570803,0.0042831502,0.011821146
137360000,-0.063724063,-0.12604271,-0.00085727725,0.00016058963,17.782648,-9.4443932,0.017372984,0.027282247
138355000,-0.074455827,-0.10372734,0.0011050999,0.0019409036,10.744115,-17.327944,-0.0012178891,-0.0054805228
139350000,-0.079906642,-0.096713461,-0.00064615917,0.00016645202,0.85025996,-20.479708,0.014095596,0.024772221
140345000,-0.092948444,-0.094570212,-0.0022449112,-0.00077752303,-9.6931429,-18.135023,0.037711482,0.004396941
141340000,-0.10153127,-0.079756938,0.00085727772,0.00045675464,-17.700562,-11.162561,0.022227688,-0.0063897963
142335000,-0.10948397,-0.069610171,0.0021919017,-3.0400337e-005,-20.968573,-0.8800053,0.01224433,0.00068427919
143330000,-0.11357807,-0.065037251,0.00061782281,0.0037247904,-18.711195,9.9104414,0.037337907,-0.033081792
144325000,-0.11268627,-0.06543956,-0.0019924047,0.0021487277,-11.213346,18.263403,0.014582998,-0.0030387745
145320000,-0.12551449,-0.044251353,-0.002696553,-0.0015623241,-1.0033633,21.524586,0.009529789,-0.018440351
146315000,-0.1165849,-0.034095831,-0.00072199601,0.00084080821,9.8605261,19.226601,-0.010015251,0.029438173
147310000,-0.1273057,-0.02858445,0.00063346024,-0.0016009901,18.03627,11.799154,-0.0010959927,-0.0022625471
148305000,-0.13027456,-0.01550662,0.00010117659,-0.0026664289,21.702698,1.5269414,0.027309692,0.032226142
149300000,-0.1143875,-0.0063960464,0.0032411308,-0.00037829205,19.823807,-9.527544,0.035609849,0.025044873
150295000,-0.13074654,0.011406336,0.0014484396,0.0027748721,12.720136,-17.753328,0.026983941,0.026011935
151290000,-0.1222982,0.025062157,-0.00022396752,-0.0013867544,2.553211,-21.965879,-0.007698209,-0.0018549217
152285000,-0.1250935,0.032708194,0.0017023301,0.0017034758,-8.4316912,-20.350021,0.0090300543,-0.0093502998
153280000,-0.11694878,0.034903821,0.003368621,0.0019992299,-17.519819,-13.473927,-0.0049837269,-0.024850426
154275000,-0.10996614,0.040759232,-0.00038276837,-2.7142047e-005,-22.013676,-3.1609931,0.042842295,0.0091810822
155270000,-0.10270666,0.06002387,-0.0022796618,-0.0029542136,-20.838032,8.0153942,0.021980539,-0.011171974
156265000,-0.10948759,0.065398924,-0.00085315661,0.0020838964,-14.659464,16.654413,-0.0077880435,0.0013459631
157260000,-0.097984046,0.079260327,-0.00088626891,0.0028413055,-4.5068164,21.731482,-0.040268805,0.016726237
158255000,-0.09238293,0.088570379,0.00078382168,0.0018121206,6.3062267,20.980703,0.0016735755,-0.030705491
159250000,-0.081213906,0.095750354,0.00015212373,0.00091760047,15.644592,15.524074,0.0093547171,0.0096535059
160245000,-0.069748618,0.11409026,-0.00068985112,-0.007398115,21.399548,6.3657165,-0.0066665499,0.0077722939
161240000,-0.068696015,0.098808192,-0.0010799799,-0.0044169058,21.464615,-4.8592806,-0.010499741,-0.040294051
162235000,-0.062898055,0.11459165,0.0017085003,-0.00015265458,16.724791,-14.367553,-0.011140244,-0.014136589
163230000,-0.039428167,0.11056339,-0.0032527957,-0.0019670494,7.610868,-20.937712,-0.010004745,-0.0069516646
164225000,-0.02803942,0.12429463,0.0016796406,0.0023831595,-3.2174633,-22.096058,0.020670047,0.003591276
165220000,-0.019597461,0.11329891,0.001206032,0.00057415891,-13.382753,-17.502411,0.0029299639,-0.034001309
166215000,-0.0086739687,0.12162364,0.002243048,0.00019273032,-19.977079,-9.0093861,-0.016003452,-0.024905136
167210000,-0.0094630178,0.12133715,0.0012980653,-0.00088142691,-21.538422,1.1843325,-0.011396493,-0.014920214
168205000,0.011506278,0.12374905,0.00093839393,-0.00033560241,-18.276262,11.330243,-0.034855884,-0.03218621
169200000,0.026897473,0.12573129,0.0015021384,-0.002884534,-10.883113,18.531284,-0.00092402921,0.0090239216
170195000,0.032699268,0.12790002,-0.0030906333,0.00068537553,-0.99953234,21.4074,-0.039699093,0.0096854605
171190000,0.052001316,0.11790287,-0.0013054003,-0.0011951653,9.1875067,19.6026,-0.019467048,-0.01609268
172185000,0.054542102,0.11515284,8.6613582e-006,0.0025515028,17.472214,12.988866,-0.024666553,-0.0060704951
173180000,0.07024689,0.1057419,-0.00050871662,0.0007323054,21.700628,2.9612682,-0.01512228,-0.0061627426
174175000,0.063930809,0.10379884,-9.8627468e-005,-0.00063337805,20.41239,-7.5500703,-0.0062548369,0.031547919
175170000,0.08490473,0.088699684,0.00054295565,0.00084343657,13.981017,-15.950121,-0.02184022,0.011185161
176165000,0.09035641,0.096034594,-0.0005080541,-0.00030806186,5.3801613,-20.527121,0.0044393339,0.02389962
177160000,0.10538768,0.074194483,0.00060905202,-0.0014861318,-5.0739946,-20.509108,0.018774215,-0.022099147
178155000,0.10932781,0.066336617,-0.0057600867,-0.00055287994,-13.866066,-15.477928,0.0053800172,0.022826195
179150000,0.11323442,0.059321869,0.00051017496,-0.00248339,-19.266848,-7.3435454,0.01506001,0.011372461
180145000,0.11977269,0.042528275,0.00075756863,-0.00067289983,-20.418081,2.3974149,-0.010131625,0.025390211
181140000,0.11922763,0.031096829,-0.0016166816,0.0026375335,-17.312376,11.598529,-0.031051749,0.0072679655
182135000,0.13540833,0.024294797,-4.1366508e-005,0.0020616872,-10.113991,18.861944,-0.034504548,0.021748532
183130000,0.12585628,0.006954269,0.0023925451,-0.0020718372,0.12219604,21.181067,-0.015178251,0.04734572
184125000,0.13045445,0.0060515562,0.0020814319,0.00070584327,9.8504772,18.812662,-0.024853935,0.024521759
185120000,0.12251838,-0.0003102042,0.00039885147,0.0055063344,17.056494,11.900838,-0.017214974,0.045338441
186115000,0.12931241,-0.029145092,-0.0010321103,-0.0035429727,20.360975,2.4123354,-0.02976192,0.0024576017
187110000,0.1223004,-0.032250766,-0.0017222762,-0.0023655121,18.989428,-7.194211,-0.014877013,0.02668654
