!CSV A.01.01
!Keysight Technologies,P5024A,MY58100101,A.13.90.09
!Date: Friday, January 24, 2020 14:10:27
!Source: Standard

BEGIN CH1_DATA
Freq(Hz),S11(DB),S11(DEG),S12(DB),S12(DEG),S21(DB),S21(DEG),S22(DB),S22(DEG)
10000000,-0.24920551,-90.716858,-59.872643,162.3026,-42.547516,-56.27597,-4.5169978,-162.6333
10995000,-0.23186988,-99.579742,-53.801689,-162.39474,-35.08749,117.90414,-5.1606755,-175.95692
11990000,-0.37174049,-109.46311,-51.255222,116.07064,-33.842041,-40.91185,-5.7590585,171.86859
12985000,-0.29993981,-118.66839,-51.183277,-149.911,-30.435909,-46.163162,-6.301404,160.31784
13980000,-0.36963761,-128.4518,-49.541538,-63.088634,-35.88586,28.767689,-6.7539635,147.87498
14975000,-0.43988669,-137.95735,-51.266369,98.161415,-32.032837,-172.86836,-7.3556538,136.62849
15970000,-0.48492232,-147.65126,-62.864208,165.97008,-54.962517,128.85364,-7.5673246,126.91331
16965000,-0.55782241,-157.57664,-53.613953,-143.92398,-32.929264,-143.45575,-8.0241823,114.68102
17960000,-0.5725289,-167.75031,-59.120132,24.444592,-37.075241,90.54847,-8.4960203,103.52893
18955000,-0.63373971,-177.925,-58.118454,50.863155,-30.104723,24.163576,-8.8285971,94.276917
19950000,-0.64771837,171.28717,-52.515041,-179.07082,-43.616066,-136.67345,-8.8072405,81.935982
20945000,-0.74201661,160.34204,-55.099339,70.915459,-36.901138,19.798155,-9.5052786,71.598236
21940000,-0.69321209,148.84987,-49.783356,-71.558456,-37.558334,65.506462,-9.6975574,61.725334
22935000,-0.71540266,136.89394,-47.282055,-58.303295,-31.505487,-116.01788,-9.6798487,53.2047
23930000,-0.73446357,124.12396,-49.164257,-2.7112021,-32.844982,16.766632,-9.759264,43.699699
24925000,-0.56602132,110.72749,-54.761276,153.39079,-32.085381,-95.746231,-9.9668417,35.805481
25920000,-0.33360305,95.716309,-55.11948,99.272049,-33.791218,7.7933793,-10.052197,24.113171
26915000,-0.077530436,77.899506,-51.039814,-106.15253,-29.261978,-46.831017,-9.9560318,14.701899
27910000,0.56632233,57.191795,-50.507175,114.31344,-25.785347,-137.61729,-9.8653936,7.6623349
28905000,1.1472614,29.563032,-53.082676,-51.510216,-15.40819,-175.33981,-9.8049116,-7.8330584
29900000,1.951914,-9.0277357,-45.590714,-95.273781,-8.1649971,115.9137,-9.528039,-13.129945
30895000,1.6515998,-59.812481,-51.528217,90.901413,-2.6725197,77.639816,-8.1942167,-16.015179
31890000,-0.55174303,-112.36407,-55.648911,55.760113,-4.8669724,-43.089565,-10.396592,-34.622898
32885000,-3.0284731,-156.31586,-58.677238,28.919514,-6.6236167,-170.59543,-8.8962545,-31.523888
33880000,-4.819386,166.63698,-52.270092,-101.77948,-4.1286826,-120.21964,-6.3033757,-38.531475
34875000,-5.8629866,137.16577,-62.77813,109.9342,-6.5782433,169.68262,-10.815423,-56.344486
35870000,-6.5558228,117.28172,-50.889812,85.753586,-6.1544642,151.27992,-9.7352295,-57.849007
36865000,-7.052454,98.461174,-46.455608,47.110584,-2.7317445,20.276634,-8.7623987,-56.875145
37860000,-6.9519234,83.338509,-63.585621,-42.654346,-1.3918608,48.962448,-8.4977503,-64.713516
38855000,-7.4585199,70.421501,-47.144733,145.14503,-1.192137,-22.271179,-6.3462019,-84.580055
39850000,-7.898829,58.280613,-57.413845,33.065235,-0.95166534,-15.7017,-10.265714,-105.11718
40845000,-7.7951174,43.293518,-45.316555,43.62394,-4.3231249,-69.845688,-9.0381832,-118.3467
41840000,-8.2925119,30.151423,-51.086399,91.697418,-14.794054,-107.34772,-9.7190571,-137.66191
42835000,-8.1103411,18.641064,-44.440376,24.751604,-2.2531686,-119.12901,-8.3708525,-115.16314
43830000,-8.2382698,5.9560466,-50.858864,136.75787,-0.39855745,-166.28993,-7.8972492,-128.8936
44825000,-9.1432133,-4.6709199,-50.587597,75.679298,-4.3170681,170.34489,-6.8205156,-130.75377
45820000,-9.1514997,-19.229898,-52.732368,-131.10542,1.6213229,134.75056,-7.7884712,-149.44531
46815000,-9.5545607,-26.607189,-53.999321,38.758461,-0.68450731,101.561,-6.3793764,-157.07828
47810000,-9.3882484,-39.566669,-45.953907,-120.52848,4.1271348,39.328362,-7.9370179,-153.68384
48805000,-10.430989,-49.78875,-53.298958,-171.58371,2.0355759,3.7276983,-11.279406,-168.94295
49800000,-10.87053,-61.722111,-54.164028,-9.0378017,2.7606192,2.3303773,-7.1454287,178.07533
50795000,-10.931354,-73.693878,-49.884907,32.797325,1.081905,-62.47826,-10.180071,172.29414
51790000,-11.089566,-86.626862,-61.683361,178.90553,3.9308228,-69.046486,-8.2200117,172.25375
52785000,-11.758587,-98.248344,-47.261307,52.412727,3.5758338,-97.290833,-9.6470156,160.58228
53780000,-12.174434,-114.10641,-62.058956,-165.74753,5.3650904,-150.7556,-6.6341853,143.39755
54775000,-12.515041,-124.85511,-58.93021,32.743195,6.2940187,174.88972,-6.8358026,151.20947
55770000,-12.75806,-137.45682,-52.80439,-122.13708,7.0543747,148.37128,-6.503572,147.9222
56765000,-13.039185,-153.70691,-48.899872,87.592613,5.1689081,105.9649,-7.3971124,128.03006
57760000,-13.215129,-168.30338,-49.554447,-84.840263,9.6710272,70.056892,-7.9016685,130.43471
58755000,-13.767454,178.2384,-46.865192,-133.38977,6.9327965,46.333931,-7.2606473,121.21423
59750000,-13.75234,163.33105,-53.82674,-79.955666,8.3260899,16.917963,-7.2685175,116.77947
60745000,-13.469605,149.01614,-47.800346,42.114124,9.6178274,-23.24777,-10.403153,107.00497
61740000,-13.737028,130.39952,-59.684292,-118.23299,10.329464,-55.437889,-6.5428548,117.78912
62735000,-13.827952,118.31023,-52.802544,27.854982,10.016887,-79.372078,-7.8910036,90.520386
63730000,-13.077567,101.67586,-43.276669,-173.62256,10.374373,-119.26355,-5.4133801,94.857994
64725000,-12.743969,89.574165,-53.982925,-87.109573,10.839888,-149.77303,-7.6931963,85.493515
65720000,-12.824731,75.768822,-48.528496,44.288853,11.468662,175.27336,-7.5749373,88.736565
66715000,-12.48048,62.692444,-55.149914,-157.59758,10.831943,141.97191,-8.1159649,73.191025
67710000,-12.198041,48.994873,-58.624569,76.683456,9.9380112,111.39537,-6.5304704,72.472305
68705000,-11.744562,32.968994,-52.938496,169.05461,10.068542,80.825829,-6.5169487,45.443527
69700000,-11.531721,21.427361,-47.846649,-179.71945,10.364498,51.009647,-4.9893279,60.411972
70695000,-11.308527,9.0548592,-50.699001,32.093746,9.7291498,14.751549,-6.6184988,41.137596
71690000,-11.055468,-2.3258853,-48.482574,-43.056782,9.0105991,-17.09717,-7.4236107,41.52169
72685000,-10.500281,-14.453206,-50.076057,26.415804,8.6356726,-48.83651,-6.2350144,29.962332
73680000,-10.405838,-26.229534,-54.324673,-172.71513,8.246459,-75.063454,-7.132452,17.711491
74675000,-10.136884,-38.008282,-50.203163,-101.65856,7.0939455,-107.65914,-7.610065,12.175292
75670000,-10.0805,-48.461834,-51.147415,32.135887,5.6939125,-133.38205,-6.4193759,8.2263393
76665000,-9.6147766,-59.634514,-64.415985,-82.124771,4.0975285,-149.31358,-6.31178,7.37468
77660000,-9.808918,-69.451553,-52.083664,-21.757488,3.928297,-165.20116,-6.8226352,-0.16963698
78655000,-9.4963617,-80.114769,-48.682991,18.452869,1.7460445,-167.46193,-7.6048555,-3.8945394
79650000,-9.4864273,-89.973022,-50.140652,-3.6461267,0.49487525,167.15979,-7.2615929,-10.086454
80645000,-9.5454216,-99.770393,-59.381927,119.81555,-0.24938098,170.74231,-6.7233901,-23.147635
81640000,-9.6597557,-110.10396,-46.432083,-112.18413,4.4399147,140.1031,-6.2563081,-30.994402
82635000,-9.4441366,-118.92238,-50.539154,103.81435,7.3027148,119.39378,-6.9517841,-38.011379
83630000,-9.6265011,-129.26024,-54.167782,133.56137,10.678062,92.421043,-5.3369603,-38.288181
84625000,-9.6507959,-136.37161,-49.714596,-155.81474,10.319422,60.447456,-7.4424176,-58.9459
85620000,-9.5487432,-145.93314,-48.046967,-101.13977,12.65756,39.336029,-5.6407828,-56.670868
86615000,-9.966177,-153.97728,-48.755596,-136.88229,13.882422,4.7052164,-6.3231211,-67.250412
87610000,-9.722106,-162.64687,-48.788639,-7.9183707,14.910123,-21.056553,-6.4949493,-75.872597
88605000,-10.00088,-171.75177,-56.039238,-65.605995,16.172987,-53.043198,-5.53265,-73.865913
89600000,-10.062757,-179.55215,-45.754551,-28.606506,16.204681,-81.831627,-5.1808467,-80.543373
90595000,-10.15187,171.56068,-42.960583,120.48301,17.36331,-110.13326,-5.7885652,-92.720207
91590000,-10.517475,164.46271,-53.990868,24.310989,18.137722,-141.90668,-6.3109417,-87.79174
92585000,-10.878316,155.03293,-47.984314,-112.11423,19.222218,-171.89752,-6.7180786,-100.3819
93580000,-10.722528,147.98387,-54.67841,177.8774,19.880278,158.16823,-6.9127855,-111.24308
94575000,-10.728815,138.97195,-50.710178,-63.104317,20.183582,128.73518,-5.5208716,-118.50807
95570000,-11.087613,133.9776,-54.780041,10.50134,21.30797,98.161575,-5.9887757,-123.07446
96565000,-11.411253,126.15888,-57.700211,-26.43648,21.792459,68.690208,-7.0537343,-131.16295
97560000,-11.184771,118.30191,-48.770447,34.858105,21.873636,40.599361,-3.3749065,-110.60747
98555000,-11.748816,110.51604,-49.982189,167.10718,21.949492,9.8950577,-6.5115767,-140.26329
99550000,-11.628529,102.20422,-48.85355,101.02816,22.276182,-16.764341,-5.32934,-150.38971
100545000,-12.274438,98.397591,-50.277962,-61.249905,22.696371,-47.504986,-4.397625,-152.24843
101540000,-12.240048,91.302025,-52.613213,109.72642,22.855888,-75.406158,-6.0459423,-153.6861
102535000,-12.141548,83.152824,-57.263004,17.019882,23.127895,-106.50407,-6.3603106,172.50237
103530000,-12.715649,76.631668,-49.802464,33.879532,23.426712,-135.35959,-3.4463694,-175.60483
104525000,-12.693313,70.549706,-49.354816,-65.131966,23.237633,-163.46397,-7.3773026,-171.27376
105520000,-13.143476,61.402985,-49.001598,-163.14084,23.484934,165.62939,-8.6834888,-178.57491
106515000,-13.384822,56.568718,-51.429482,77.05278,23.840332,140.78226,-5.3587785,164.33792
107510000,-13.259865,51.693844,-47.00338,-15.38475,23.448278,114.42746,-3.6081743,157.69611
108505000,-13.533668,42.531113,-57.05019,-164.85649,23.151522,84.424858,-4.7846327,162.52505
109500000,-13.786849,36.55444,-45.321575,-85.322289,22.727051,58.652206,-5.5846915,140.5244
110495000,-13.75467,30.992455,-53.429646,156.97043,22.735401,35.111893,-2.8632197,118.28736
111490000,-14.185209,25.700846,-52.706459,140.12967,22.217205,10.979311,-5.2025828,141.30177
112485000,-14.477085,19.988855,-56.942436,-171.75699,21.734695,-8.8148184,-4.8577724,128.5303
113480000,-14.183208,11.511218,-50.292061,-95.210556,21.438757,-22.355162,-2.8929648,101.54665
114475000,-14.609272,4.8298211,-54.429592,-15.363626,22.055754,-37.701584,-3.8514507,108.36541
115470000,-14.574605,0.17443144,-51.217087,-145.78044,23.723749,-48.648903,-5.8495097,92.913902
116465000,-14.285222,-4.7610664,-53.452591,88.776268,26.404612,-65.647537,-3.910105,88.006592
117460000,-14.866675,-11.183657,-58.333069,37.31802,28.595415,-87.47908,-4.3640528,64.075768
118455000,-15.254258,-18.55456,-50.991421,-27.629562,31.337925,-113.1975,-3.6295326,54.680912
119450000,-16.108723,-19.030315,-43.449486,-162.11023,33.646191,-142.24657,-6.9022799,72.725342
120445000,-15.726492,-28.58761,-51.270851,134.76331,35.947708,-173.56631,-6.0211973,37.709362
121440000,-16.176523,-31.333513,-58.533405,95.76535,38.102043,154.1581,-6.7301521,40.279186
122435000,-15.69786,-39.668938,-49.643425,111.10201,39.80817,117.71818,-6.5339947,45.601563
123430000,-16.001905,-46.562748,-52.824898,59.367542,41.032246,81.335762,-4.2160425,42.200947
124425000,-15.8505,-50.117424,-61.580894,-159.59692,42.318825,44.96302,-10.08097,52.180256
125420000,-16.870096,-55.042496,-59.521698,178.48273,43.086941,8.8845921,-11.402607,8.0517616
126415000,-16.681616,-61.099247,-56.077358,-147.5235,43.801662,-27.768412,-11.478026,2.4215665
127410000,-16.774511,-66.903442,-69.690125,122.14996,44.155052,-63.097042,-5.5274444,46.436771
128405000,-17.118818,-75.481743,-51.963478,-45.280308,44.415848,-97.340698,-12.729165,-0.10142887
129400000,-16.842541,-79.0327,-52.690895,-50.63763,44.683014,-131.16243,-21.315262,-158.72334
130395000,-16.773436,-80.732246,-64.767731,173.93164,44.911118,-164.38074,-5.4084425,31.843374
131390000,-17.349564,-86.758698,-52.101337,146.0385,45.079887,163.5231,-16.66412,1.246678
132385000,-16.964495,-94.449303,-58.362385,21.800117,45.177811,130.72192,-9.3533678,-5.2466969
133380000,-16.768513,-96.983414,-52.712994,157.44614,45.257145,98.802773,-12.092749,-29.867304
134375000,-17.132141,-104.65472,-47.696465,155.57191,45.32304,67.696259,-9.7744408,2.1889563
135370000,-17.365622,-109.75317,-56.901463,-42.15731,45.40152,36.466457,-7.0075288,12.808916
136365000,-17.508728,-114.19404,-54.884857,114.9337,45.514534,5.7001214,-10.869121,-43.445339
137360000,-17.137154,-122.45197,-57.718204,150.814,45.491318,-25.012575,-14.323006,-28.826292
138355000,-17.138327,-124.19154,-48.641727,94.359634,45.550751,-55.546555,-8.2321367,-49.711857
139350000,-17.738823,-129.55037,-54.817497,-108.00648,45.68404,-85.532959,-7.7370691,-33.907219
140345000,-17.984917,-133.69472,-49.192764,-58.790089,45.783123,-115.98267,-8.0222578,-70.486923
141340000,-17.926411,-141.58281,-57.920677,-44.433273,45.827713,-145.64935,-9.5681477,-36.298534
142335000,-17.664249,-144.17503,-51.371708,-57.720795,45.842453,-175.96927,-6.9542794,-52.829414
143330000,-17.482841,-148.64133,-47.74662,142.41983,45.916504,154.21419,-11.807878,-60.7066
144325000,-17.595257,-153.21445,-57.936195,134.03574,45.960289,124.51985,-9.590517,-78.362816
145320000,-17.435484,-156.41129,-45.659222,141.46568,45.979382,95.143555,-10.523417,-144.13104
146315000,-17.644333,-163.85312,-48.447632,67.951828,46.005344,65.407974,-37.878201,-90.894882
147310000,-18.31245,-168.89746,-44.94429,-62.665585,46.079361,35.523773,-7.1103373,-96.220451
148305000,-18.517376,-168.91841,-52.271889,-106.31208,46.069424,5.7724442,-9.3939562,-72.076988
149300000,-17.835447,-177.524,-47.440994,-173.00708,46.01627,-22.764902,-6.0646639,-130.52814
150295000,-18.156513,177.69861,-48.484161,-64.074303,46.121262,-52.483143,-5.180048,-108.26929
151290000,-18.156256,172.71283,-47.269421,-89.383621,46.080639,-81.543579,-13.580223,-105.99712
152285000,-17.678238,167.73744,-52.337967,11.534991,46.158524,-110.00153,-12.069783,-167.22559
153280000,-17.956898,161.87363,-53.315987,119.79231,46.203121,-139.33397,-10.058074,-118.71439
154275000,-17.838146,154.23256,-47.528027,-63.414223,46.214886,-168.24715,-16.608467,-74.974251
155270000,-18.372326,152.95073,-64.339302,111.49588,46.154793,162.92473,-3.9632843,-148.0825
156265000,-17.817991,147.61208,-48.680183,-126.32051,46.090431,133.96175,-13.440814,-80.68631
157260000,-18.249413,144.88725,-58.833115,62.049538,46.119804,105.13551,-12.042599,-143.26999
158255000,-18.333622,138.00908,-52.561783,11.649112,46.070961,76.336945,-18.024275,-51.095654
159250000,-18.011648,130.68625,-48.007004,145.24092,46.101612,47.830765,-16.657322,-72.005966
160245000,-17.775364,127.63688,-50.754494,77.139877,46.097786,19.266672,-11.469136,-147.2686
161240000,-18.49963,123.13475,-63.569904,-131.01871,46.085335,-9.2253656,-9.8103867,-137.98433
162235000,-18.464474,117.64957,-46.411793,39.128929,46.114876,-37.768345,-19.031286,10.582466
163230000,-17.933783,115.86806,-54.591293,-39.305218,46.08017,-65.907822,-20.979479,169.20734
164225000,-17.789387,103.23009,-49.245758,-49.468121,46.163158,-94.605354,-12.149158,174.33194
165220000,-19.001762,102.84178,-54.123432,-61.286484,45.967373,-123.78546,-14.971716,-161.37488
166215000,-17.87915,96.367767,-55.82946,-83.920677,46.010433,-151.56734,-11.735758,-102.82808
167210000,-17.993357,93.896088,-50.002831,-44.576393,45.954155,-179.44826,-6.6598177,-127.23905
168205000,-18.327141,87.677254,-57.446754,15.312221,45.879314,152.54686,-13.640083,119.7797
169200000,-18.250118,75.780624,-62.783146,-52.564014,45.862579,124.59832,-15.282362,158.19588
170195000,-18.474564,72.7118,-66.340988,-29.288469,45.90884,96.242378,-10.273967,156.06276
171190000,-18.447403,68.732552,-63.621552,124.88486,45.86314,68.352226,-23.437948,141.12984
172185000,-17.926796,68.87587,-58.758377,-151.77582,45.931568,41.306759,-10.083061,167.83891
173180000,-17.905704,59.634861,-48.712177,-13.104778,46.016346,12.43207,-14.052,-147.77638
174175000,-18.334934,52.107906,-57.558151,179.07961,45.931625,-16.441193,-9.0130119,152.90279
175170000,-18.047358,45.249607,-49.992535,-138.99768,45.880054,-44.07254,-6.9107423,150.19223
176165000,-17.461679,47.015789,-43.086967,-150.24443,45.83984,-70.623482,-12.90296,131.82462
177160000,-17.575941,39.98024,-54.630993,89.809166,45.813782,-98.622505,-4.4315524,146.65723
178155000,-18.321136,35.848267,-49.842236,34.314949,45.65567,-126.31274,-15.411129,103.98385
179150000,-18.230366,25.404573,-48.342251,-161.36583,45.643063,-154.38654,-9.4563951,120.02641
180145000,-18.307968,24.451332,-60.744442,-13.219481,45.598335,178.42358,-13.94839,123.14934
181140000,-18.310202,20.405504,-49.139977,-0.1663408,45.64201,150.95683,-9.3910217,151.76743
182135000,-18.262508,13.215294,-50.85601,-63.800503,45.756943,123.37009,-6.6981525,115.18434
183130000,-17.555336,10.768885,-49.825279,85.930984,45.84948,95.713173,-9.8690176,154.42401
184125000,-18.378344,-2.6380901,-51.585011,64.880997,45.643627,67.241798,-10.769626,151.44434
185120000,-17.762144,-1.0641209,-51.164028,133.61186,45.70845,40.105038,-8.3577642,107.66908
186115000,-17.334318,-8.2677965,-52.476757,111.93674,45.687931,11.925664,-9.4491558,90.763443
187110000,-17.924578,-13.931975,-46.741806,71.794418,45.602276,-15.409162,-10.806635,62.950691
188105000,-17.755625,-18.420755,-45.355968,-35.5168,45.532501,-42.467304,-11.437407,122.63479
189100000,-17.538111,-28.703094,-49.749851,-81.993416,45.542946,-70.989388,-5.6564736,72.588394
190095000,-17.782921,-31.505669,-49.746761,56.174412,45.413017,-97.170929,-29.685364,-120.90978
191090000,-17.968058,-37.147106,-53.349659,-117.88771,45.541214,-124.59749,-10.442787,57.205734
192085000,-17.543175,-45.118763,-47.801342,-51.728287,45.589409,-152.25992,-7.4185023,81.36116
193080000,-17.955425,-44.415493,-53.133835,26.620361,45.659164,-179.50984,-15.790246,120.65958
194075000,-16.796553,-52.689762,-55.079998,151.80231,45.660393,151.77052,-8.250927,5.3110123
195070000,-17.287384,-59.271698,-55.212143,-42.524727,45.60368,125.05505,-10.44118,18.315939
196065000,-17.634062,-65.06031,-56.519279,137.87173,45.478184,98.154434,-10.284277,66.956146
197060000,-18.28595,-70.177582,-50.859764,17.832964,45.467255,70.200188,-7.1343846,19.219267
198055000,-17.986362,-76.321205,-51.645851,-97.605423,45.356941,42.80484,-12.691926,-4.5717764
199050000,-17.251856,-82.220604,-58.961388,-85.713547,45.307961,14.968853,-14.872863,14.027845
200045000,-17.528118,-86.424896,-55.44109,-85.690842,45.339619,-11.473072,-8.102993,8.1700745
201040000,-16.693316,-90.315041,-56.533463,-89.144928,45.37048,-39.02018,-14.134614,37.66711
202035000,-17.279814,-94.723541,-53.706425,-100.85233,45.463291,-66.015831,-10.516223,-18.140749
203030000,-16.983175,-104.13645,-59.566097,20.093554,45.45108,-93.453026,-14.099108,8.8017101
204025000,-17.337959,-107.89974,-62.272091,113.38963,45.444382,-120.90359,-9.7782526,11.260938
205020000,-17.65509,-114.19377,-49.919098,-11.930916,45.362206,-147.91771,-11.862528,-17.863024
206015000,-18.030371,-111.78643,-54.211151,-78.566322,45.451675,-175.70872,-9.5458221,26.667627
207010000,-17.284714,-121.56602,-55.784168,-134.78409,45.190865,156.83362,-6.9734344,7.5033498
208005000,-17.850121,-125.51075,-71.690689,-39.950195,45.347385,129.89368,-10.285878,4.61449
209000000,-17.473362,-132.49768,-51.539921,65.038223,45.259472,102.74834,-5.7661715,-17.560453
209995000,-16.756804,-138.74167,-52.260582,-174.09818,45.128136,76.466537,-5.0351524,-45.154106
210990000,-17.717451,-148.13522,-45.930859,-79.812119,45.23616,49.926674,-6.647902,-39.889229
211985000,-17.510752,-148.61171,-49.212349,146.4812,45.270031,22.534229,-7.5926075,-52.864685
212980000,-16.943794,-152.62375,-51.660625,-83.488678,45.173599,-4.885231,-8.0368414,-65.283928
213975000,-16.881294,-157.05162,-48.607788,-124.05539,45.248932,-32.682369,-18.516714,-60.967915
214970000,-17.323816,-165.85263,-54.741085,124.18098,45.303623,-59.348759,-8.9851284,-45.694122
215965000,-16.869577,-170.8755,-51.295288,155.55486,45.116032,-86.186066,-16.176332,-74.408218
