!CSV A.01.01
!Keysight Technologies,P5020A,MY58100190,A.14.10.03
!Date: Tuesday, June 23, 2020 18:36:42
!Source: Standard

BEGIN CH1_DATA
Freq(Hz),S11(MAG),S11(DEG),S12(MAG),S12(DEG),S21(MAG),S21(DEG),S22(MAG),S22(DEG)
1000000,1.0017474,-5.5557866,0.0033780951,-136.47556,0.015166974,25.209734,0.9760437,-10.928256
1499500,0.99827063,-8.2547321,0.00045899872,-110.51553,0.016101129,-175.34964,0.99449337,-17.787683
1999000,0.99682069,-10.790637,0.0011411759,13.743531,0.011805587,46.693512,0.98214853,-23.962154
2498500,0.99901849,-14.033757,0.00077941915,60.093746,0.041272115,173.75256,0.94868618,-30.373014
2998000,0.99654245,-16.50152,0.00080324442,92.309685,0.019363318,-124.5332,0.95226222,-35.762756
3497500,0.99322641,-19.124844,0.0015765068,80.967468,0.012475405,-121.9377,0.91586512,-42.458134
3997000,0.99302542,-21.980986,0.001734518,-5.2511363,0.024462735,81.109573,0.92057878,-44.786888
4496500,0.99540228,-24.62837,0.0011991678,53.234257,0.02329177,40.338001,0.92599893,-52.286537
4996000,0.99600273,-27.458033,0.00086117239,-123.83961,0.026143383,99.206207,0.88990784,-60.527435
5495500,0.99079359,-30.180744,0.0006207343,145.46338,0.023871792,-172.86484,0.85450792,-65.44381
5995000,0.98997182,-32.980255,0.0012008039,66.551941,0.031861976,-160.92165,0.8681705,-69.997246
6494500,0.9909848,-35.908356,0.00069674628,40.448551,0.024355635,-37.395168,0.83198977,-76.099731
6994000,0.99115038,-38.760616,0.00113333,-165.40675,0.024256393,86.802284,0.78806812,-81.81382
7493500,0.98646843,-41.495354,0.00056652998,61.493374,0.034692742,-86.79464,0.68913311,-83.45443
7993000,0.98507673,-44.483433,0.00076493202,-169.31416,0.020880027,30.475939,0.69814658,-89.819618
8492500,0.98428309,-47.24015,0.00062032667,90.782394,0.035546806,63.549694,0.67702723,-95.877655
8992000,0.98175561,-50.158859,0.0010350602,-143.51057,0.043537699,-56.885643,0.66821271,-97.689285
9491500,0.97853464,-52.99802,0.00024351219,162.90561,0.033708233,18.310427,0.61085814,-104.25504
9991000,0.98085344,-55.590553,0.00033269799,158.91045,0.018660014,-95.175041,0.58478516,-108.86189
10490500,0.9751882,-58.580547,0.00052971847,-85.590599,0.013100194,141.79689,0.59063816,-108.54273
10990000,0.9732219,-61.562824,0.00078421971,-100.89594,0.030114153,-83.446014,0.6052475,-115.17303
11489500,0.96923113,-64.453896,0.0015462214,-30.282942,0.01923354,-89.81163,0.56554723,-116.11514
11989000,0.96396035,-67.492477,0.00088536978,45.509361,0.025205791,33.665047,0.52294821,-123.42046
12488500,0.96167618,-70.543015,0.00056683872,7.5470109,0.021082424,132.22644,0.50443172,-126.20675
12988000,0.95982736,-73.408371,0.00028545217,133.21758,0.048531041,1.6298798,0.49910769,-128.34094
13487500,0.9550662,-76.464096,0.00073868304,-178.82646,0.022676036,67.486092,0.48517424,-130.55878
13987000,0.95348233,-79.433022,0.00047974155,117.44938,0.016219046,-48.706974,0.50671601,-131.57753
14486500,0.95159799,-82.482895,0.00028473028,-95.246552,0.037028607,61.222004,0.4909496,-140.42555
14986000,0.94699723,-85.653473,0.00031019212,-21.160152,0.029921763,-53.20808,0.43885398,-138.1575
15485500,0.94217879,-88.666336,0.00014284549,-163.45645,0.010628851,-116.66525,0.4472422,-141.97032
15985000,0.94144273,-91.886597,0.0011269435,18.686487,0.019328538,-155.41156,0.45363256,-149.21228
16484500,0.9372806,-95.133652,0.00084885728,-65.268028,0.060556185,-65.037308,0.42850378,-144.58243
16984000,0.93619454,-98.485542,0.0012717999,-12.656073,0.054752622,-26.305176,0.39478046,-150.35812
17483500,0.93387723,-101.76969,0.00020853899,-3.3119535,0.014629209,154.7113,0.40452218,-156.07021
17983000,0.93094164,-105.13261,0.00078241091,-54.37746,0.034215316,-104.77567,0.41697192,-157.53807
18482500,0.92983884,-108.66609,0.0010974992,127.91957,0.027984586,-149.57079,0.39694411,-157.93936
18982000,0.92966694,-112.30935,0.00090236275,175.17799,0.05438666,-15.918681,0.39316347,-166.07222
19481500,0.92878532,-115.98783,0.00063512381,120.01904,0.033626772,-90.07373,0.39521095,-160.64186
19981000,0.92915398,-119.8313,0.00057358795,58.807999,0.058278296,-121.86201,0.36743975,-168.62975
20480500,0.93084979,-123.82815,0.00051313301,-104.17033,0.031946477,157.5869,0.40099725,-171.47815
20980000,0.93120062,-128.10751,0.00040834665,74.318329,0.021878436,-131.12718,0.36165482,-172.80304
21479500,0.93630677,-132.48914,0.0001516106,-150.57544,0.03258187,-157.98055,0.35127595,-174.11421
21979000,0.9414193,-137.26146,0.00059608027,-163.55058,0.049915977,-169.23131,0.36126506,178.30246
22478500,0.94759661,-142.25217,0.001270898,-31.064882,0.053619787,-130.12093,0.37772331,-178.83365
22978000,0.95857257,-147.55046,0.001002221,108.57169,0.026691319,72.793755,0.38122302,-179.77701
23477500,0.97051203,-153.72469,0.00053569302,174.94104,0.020092737,64.365364,0.34926432,178.35176
23977000,0.98343498,-160.55563,0.0008065615,-96.800934,0.0077994959,58.919891,0.35548976,171.78714
24476500,1.0000374,-168.06496,0.00085990538,-45.026993,0.059192229,14.066885,0.34536645,172.39125
24976000,1.0163732,-177.04097,0.00037381161,96.88195,0.061682619,46.719826,0.32006407,168.82077
25475500,1.0398149,172.90494,0.0011834512,-135.70558,0.16604225,2.1462009,0.36332917,168.9597
25975000,1.0564195,160.43915,0.0015377392,-135.73367,0.17950034,-24.121456,0.32299313,166.1962
26474500,1.0640458,145.77858,0.00067091663,-117.23086,0.28375447,-31.23395,0.35168317,162.05553
26974000,1.0548806,128.16374,0.0019943509,101.4341,0.40370718,-47.010406,0.36383173,159.00339
27473500,1.0036701,107.65199,0.0013927434,-128.24783,0.50343168,-66.69474,0.32264268,160.0882
27973000,0.90708154,84.557404,0.00045534232,37.981838,0.61974633,-84.75087,0.36121747,159.3497
28472500,0.78777951,60.34203,0.00069779798,132.55734,0.73657662,-101.55402,0.32008252,156.63634
28972000,0.65814078,36.823879,0.0008619781,58.060432,0.77267313,-122.24246,0.35953647,159.16727
29471500,0.56275988,13.907135,0.00057114306,164.86366,0.81698406,-137.99649,0.3424952,157.56487
29971000,0.49604547,-7.4367747,0.0011858026,-128.47073,0.89615506,-151.43973,0.33238214,150.25653
30470500,0.45147553,-26.610718,0.00015324647,115.99684,0.93593532,-163.92899,0.31830698,143.8528
30970000,0.42898703,-43.302616,0.0013134438,84.734764,1.8416362,-172.77791,0.19372065,-175.91924
31469500,0.41587153,-57.295582,0.00084159052,118.19,0.81950957,-162.65291,0.29394203,128.72519
31969000,0.41241395,-69.734795,0.00079126033,100.40092,1.1518459,-167.0524,0.22499296,147.99782
32468500,0.4076992,-80.65519,0.0002141424,-26.686661,1.7686511,-172.82658,0.44792676,125.15636
32968000,0.40769553,-89.094109,0.00071550283,145.85516,2.0595808,137.16449,0.29971266,130.66869
33467500,0.41088912,-97.664261,0.00064087351,-70.864426,0.84189498,162.31532,0.13457049,-173.23462
33967000,0.40761545,-103.79649,0.0025449758,17.856142,0.023252496,126.47694,0.45547655,143.06812
34466500,0.41267377,-109.42425,0.00073147693,-44.800911,1.1427953,76.74762,0.39459464,130.43556
34966000,0.41180319,-115.30585,0.00061120314,109.51485,2.2153158,135.23846,0.47773185,168.16669
35465500,0.41299671,-120.88081,0.00023203842,-10.8603,2.4028749,92.710899,0.20772538,135.51036
35965000,0.41585153,-125.06943,0.001494777,-58.23233,2.4150887,99.103157,0.29845965,112.17042
36464500,0.4120394,-129.24162,0.0017694583,-50.093056,2.1229374,117.87669,0.41585031,141.77293
36964000,0.40699756,-133.47585,0.001636024,-131.18932,1.8157922,97.562614,0.30065247,124.30933
37463500,0.4086653,-137.08705,0.0012507539,4.8252778,2.0126722,71.431091,0.48334116,136.08122
37963000,0.41202193,-141.54645,0.0013434883,-113.89812,3.0592742,65.60434,0.38173932,149.07622
38462500,0.40444714,-144.80994,0.0028788005,-144.04053,2.0842111,61.141983,0.34066451,92.095879
38962000,0.39902097,-147.82944,0.00079359737,-112.2547,2.9694808,82.096146,0.417665,114.0573
39461500,0.40206799,-151.96761,0.00098525966,-134.53558,1.6123022,69.229843,0.13044696,125.46663
39961000,0.39882028,-154.70483,0.0014006307,-30.320477,3.0849652,62.153191,0.29852861,109.36538
40460500,0.39798525,-157.43144,0.00064179621,108.37063,4.2055292,57.100548,0.29965341,106.17593
40960000,0.39839694,-160.64821,0.0017369096,-152.11096,3.9045508,43.093647,0.17444576,172.0311
41459500,0.39693546,-163.27838,0.0012693127,177.63435,5.4889455,29.635303,0.46917161,115.09867
41959000,0.39779109,-166.35823,0.00060736533,128.94394,4.8799758,48.475246,0.2064309,95.086723
42458500,0.38924801,-168.61267,0.0006596694,-5.8335085,4.1262951,25.812706,0.36007592,100.04928
42958000,0.39261845,-172.22299,0.0014316367,-55.275387,4.2824225,20.541248,0.20933765,95.279945
43457500,0.38685334,-174.90898,0.0011516642,-28.568003,5.8984594,7.1743307,0.3291418,90.65213
43957000,0.38299322,-178.35733,0.0023389573,-85.168266,4.4657602,-1.6185012,0.37963226,119.82096
44456500,0.38381726,179.29141,0.00040055212,76.261177,5.5706716,-1.502187,0.29163924,96.603653
44956000,0.37747949,176.92009,0.00058888923,-111.93427,5.5647483,-21.2623,0.58526188,118.22253
45455500,0.37639204,174.07198,0.0019120638,114.34007,5.9780025,-19.512962,0.5696786,73.348381
45955000,0.37431121,171.18134,0.0010696372,-124.15282,6.7012377,-22.952991,0.11622393,107.20963
46454500,0.37145385,168.57936,0.00077816175,116.91431,7.7543759,-28.294626,0.40249828,107.4873
46954000,0.37088573,166.31088,0.00092796568,83.84861,7.5821743,-41.522427,0.32035929,97.954285
47453500,0.3661671,162.32198,0.0020026998,22.789488,7.7393451,-45.384148,0.24886428,111.04979
47953000,0.35790342,159.61316,0.00067679939,173.07814,8.4745808,-49.707848,0.21073033,156.19431
48452500,0.36253658,156.36771,0.001469986,161.23706,9.0025911,-54.887852,0.41465646,103.49523
48952000,0.36087063,153.79442,0.0012823706,-20.200382,8.782752,-60.572876,0.42057416,80.87339
49451500,0.36099035,150.99055,0.00045002936,34.334656,9.9745989,-71.107086,0.63655752,106.39789
49951000,0.35692939,148.20639,0.00041889405,-165.19431,9.3741417,-79.757217,0.42805284,79.288712
50450500,0.35489962,145.05025,0.0020045154,97.71579,10.898042,-83.195969,0.43149799,101.83289
50950000,0.35275736,142.40823,0.00061761594,20.863218,10.580898,-88.891418,0.22188076,82.764328
51449500,0.34784806,139.16081,0.0010739631,-46.502636,11.166875,-91.699554,0.56695884,97.654343
51949000,0.34952533,137.02094,0.00046624499,105.69015,11.43283,-99.430237,0.4193719,115.40155
52448500,0.34401321,133.75642,0.00018901414,70.178085,12.368037,-109.14099,0.36228642,97.551819
52948000,0.34343413,130.62238,0.00067485432,108.10582,12.610648,-116.1215,0.39659274,88.235603
53447500,0.34317109,128.06502,0.00043073183,-104.69178,13.538619,-118.51481,0.36433589,89.377777
53947000,0.33978954,124.52546,0.00029577749,164.75471,14.883125,-130.54582,0.38294816,62.594032
54446500,0.33525363,121.33356,0.00065060507,38.655056,14.015751,-136.68568,0.38106644,76.866737
54946000,0.33588237,118.97797,0.00087206264,-3.909874,13.442493,-142.31039,0.4500218,61.565018
55445500,0.33663362,116.06055,0.0006129219,116.48191,15.400011,-149.27963,0.47921544,94.599472
55945000,0.33026412,112.8008,0.00033041366,18.060966,15.041405,-155.18097,0.41898447,68.320053
56444500,0.3305285,109.49085,0.00094757648,-22.328424,14.274023,-160.52499,0.4280633,81.952141
56944000,0.3319492,106.05767,0.0018511437,-125.80934,15.506013,-163.11005,0.34186125,88.935982
57443500,0.3302851,103.15953,0.0017865429,-97.063919,16.849688,-168.95493,0.3939102,62.365784
57943000,0.32528174,100.23729,0.0014482029,-109.85168,16.13059,-177.01582,0.44469547,66.624435
58442500,0.32615894,96.203941,0.00032787133,177.63242,17.404308,175.57458,0.49847123,57.558586
58942000,0.322137,93.081047,0.00024796138,84.500954,17.567741,171.41113,0.59128457,57.877663
59441500,0.32700625,90.29628,0.00036797248,-2.413116,17.599743,163.86555,0.42182383,71.011536
59941000,0.32170519,87.240334,0.00083611539,121.54411,17.580305,159.28429,0.56122029,72.138084
60440500,0.32247299,83.696335,0.00095835829,-105.25684,19.268747,156.60861,0.5652982,87.440109
60940000,0.32191727,79.741806,0.001702255,-160.08101,18.750219,149.37744,0.37822232,52.341885
61439500,0.32017609,76.581795,0.00049023883,101.52712,18.586311,142.04089,0.49747613,62.828266
61939000,0.32285836,73.269478,0.0010427956,131.59274,19.831644,138.79709,0.62136358,78.038795
62438500,0.32098925,70.403496,0.00071937463,65.485596,19.563309,133.60036,0.43096235,78.983887
62938000,0.32140297,66.555992,0.00094050757,-18.192108,19.250589,128.0695,0.36467084,64.394119
63437500,0.32013425,63.190029,0.0019867094,-152.42751,19.961926,120.30552,0.35163876,82.146637
63937000,0.31909013,59.70763,0.00062889705,118.10195,19.564089,113.03025,0.3235966,64.863472
64436500,0.32373801,56.069492,0.00048377909,-30.305696,19.689964,107.81995,0.37661108,59.10466
64936000,0.31972802,52.795452,0.00068806001,126.61945,19.570627,103.75545,0.49368668,52.580002
65435500,0.32012948,49.382732,0.00027114205,-118.62289,20.820398,101.05841,0.49077711,66.403854
65935000,0.32089594,45.619862,0.0002888561,-32.144253,19.372992,91.354752,0.48748174,71.005363
66434500,0.32097694,42.799026,0.00079479406,9.8333073,19.933788,87.518814,0.37836963,71.329453
66934000,0.31938255,38.563335,0.00011676661,67.776886,20.154779,78.911423,0.33783615,77.212547
67433500,0.32634467,35.474667,0.00037192629,102.82824,19.559603,75.630386,0.50516981,51.720131
67933000,0.32487857,31.838343,0.00087287044,-21.979477,19.008717,72.048401,0.18796968,49.23624
68432500,0.32279104,28.364162,0.00060205773,-172.01195,19.774689,66.49424,0.51000452,58.366405
68932000,0.32143414,24.283869,0.00052823249,-147.51093,19.009554,62.550335,0.36963549,71.824524
69431500,0.32472304,21.753269,0.00068210019,-67.909286,19.744095,59.158276,0.42217633,79.257217
69931000,0.32204598,18.099005,0.00065759924,-110.80926,18.592945,54.775555,0.4872404,60.259583
70430500,0.32497337,14.881576,0.0015025625,59.80283,17.881678,46.154156,0.66063559,50.983208
70930000,0.32486314,11.697217,0.0013943092,-176.80798,18.227724,43.481541,0.58895224,59.923
71429500,0.32223022,6.9242816,0.0023879358,-105.7421,17.532522,37.223133,0.304279,24.179113
71929000,0.32837167,4.2929392,0.00090109633,23.543621,16.947372,34.725365,0.43240979,34.008301
72428500,0.3232353,2.1862113,0.0014827627,-125.85352,16.243505,33.288582,0.32683533,63.121304
72928000,0.32490665,-2.4307942,0.00066567119,24.549517,15.073597,20.941456,0.58130884,47.735836
73427500,0.3281002,-5.6785736,0.0016128503,175.33228,14.504542,20.322416,0.59983921,55.380909
73927000,0.32481211,-8.8985357,0.0013757864,174.9407,14.546135,16.198574,0.60002226,52.676167
74426500,0.32321078,-11.946316,0.00078810484,-166.46617,13.105666,9.9270763,0.3280403,37.116772
74926000,0.32155693,-16.04768,0.00079954491,-84.601547,12.91112,11.558486,0.520073,35.688473
75425500,0.32541153,-17.442768,0.0021152552,-95.469368,11.800971,9.8068571,0.35510096,69.453705
75925000,0.3197701,-21.703869,0.00091107032,179.39783,11.004528,5.2872567,0.52244461,51.643734
76424500,0.31777886,-24.45315,0.00011612147,151.07664,9.8134594,7.0412478,0.35944936,52.543232
76924000,0.32022309,-28.455685,0.00048006285,-64.865425,10.014273,3.715874,0.43162516,36.275116
77423500,0.31891367,-30.70018,0.00082000624,20.548418,8.1125679,6.2651906,0.41370568,58.839504
77923000,0.31536162,-34.161591,0.0019606135,159.88097,8.5875893,1.5799477,0.59221405,50.274498
78422500,0.31588203,-36.898258,0.00024652711,16.293713,7.4016142,7.2298269,0.43594939,53.386826
78922000,0.31327105,-39.95956,0.0025832916,17.838165,6.2172666,24.373302,0.49552262,42.44529
79421500,0.3111077,-42.796932,0.00078188645,115.17449,7.6577415,20.109131,0.42411464,32.094109
79921000,0.3073037,-45.026192,0.0010637868,-103.3511,6.5464005,25.326921,0.6612094,26.348671
80420500,0.30833706,-47.834507,0.0003249213,146.06355,7.1717973,27.584135,0.5251658,17.629339
80920000,0.3083216,-50.513371,0.0013414434,106.31727,8.1770849,37.17701,0.4872638,34.042618
81419500,0.30467308,-53.807766,0.00090760348,-147.0266,8.6963682,43.764545,0.47556809,43.628723
81919000,0.30563417,-56.17503,0.0010995105,168.26746,10.244211,45.135754,0.37416071,24.344288
82418500,0.30100861,-58.551682,0.001350992,-111.76548,11.635194,42.873695,0.54078692,19.77997
82918000,0.29697332,-60.842098,0.0013692202,-171.55861,12.547095,44.322899,0.31432807,28.883083
83417500,0.29617497,-63.920811,0.00038339326,33.684303,14.082877,38.527439,0.38655695,40.848476
83917000,0.29821277,-65.807625,0.0018068134,-1.5091747,16.587982,41.485611,0.33442298,11.522005
84416500,0.28939766,-68.307251,0.0010761837,-72.568726,17.747026,37.979969,0.44955361,32.692364
84916000,0.28674302,-70.186081,0.00058817287,71.839996,19.090961,38.17968,0.31659168,43.463894
85415500,0.28312412,-73.344688,0.0010765564,-8.248909,20.863476,33.970863,0.52311826,34.295147
85915000,0.28072235,-75.461784,0.001097117,101.81624,22.266588,31.082859,0.58168441,27.81031
86414500,0.27983201,-75.986641,0.0014965398,145.36913,23.868889,25.899412,0.53507477,27.531393
86914000,0.27613339,-78.412018,0.00075853179,-143.14439,27.417311,23.354088,0.48541546,48.733604
87413500,0.27676803,-80.979485,0.00073137344,67.821228,28.199543,18.802105,0.3935667,24.636936
87913000,0.27028102,-84.015984,0.00043423925,136.08131,30.041302,14.554374,0.49335083,33.886784
88412500,0.26835942,-85.223526,0.00020389917,174.40634,31.997412,11.023723,0.38339281,15.202299
88912000,0.26556563,-87.858955,0.0008535955,-88.943001,33.477356,7.6795354,0.32777905,29.820023
89411500,0.2610077,-89.959938,0.0012391171,-88.740456,36.277786,3.9759598,0.34659609,26.616644
89911000,0.25615868,-90.691223,0.0010261262,-80.605904,37.760174,-0.12234258,0.31373483,21.041044
90410500,0.25619414,-93.978622,0.00064778927,-74.699097,39.362087,-5.3239942,0.67989284,40.801601
90910000,0.25201347,-95.061073,0.0014754517,-65.780884,42.005131,-7.2339859,0.363626,9.7310801
91409500,0.24887131,-96.330078,0.0009364385,-126.98061,43.335125,-12.642532,0.48746479,26.582846
91909000,0.24746454,-97.824593,0.00083307945,-31.197836,45.617016,-15.601501,0.42307574,13.715392
92408500,0.24447054,-100.25853,0.00061255379,-76.84877,46.52626,-19.565281,0.66405451,19.497061
92908000,0.23895006,-101.29963,0.0006465186,-23.506695,50.213627,-23.494234,0.37214056,6.8048639
93407500,0.23357953,-103.67052,0.00072482694,-81.757072,52.33366,-26.874714,0.34662816,11.911039
93907000,0.23578681,-103.65668,0.00080944551,-165.67908,53.752438,-31.693598,0.51145101,23.647614
94406500,0.23724236,-106.48222,0.00043445214,106.73846,56.626209,-35.746262,0.31732994,9.7861633
94906000,0.23120862,-108.80781,0.00086581678,96.314713,57.682205,-40.403801,0.64385843,19.748568
95405500,0.22341304,-108.69929,0.00060724426,-102.80311,59.467506,-44.888412,0.54746366,19.926638
95905000,0.21669459,-111.48161,0.0020224629,-33.04483,60.71241,-47.714993,0.70991224,9.1874428
96404500,0.22183694,-113.02415,0.00055581133,49.013939,63.85043,-52.626202,0.61125237,28.349545
96904000,0.21939757,-113.56567,0.00090564019,129.42963,65.551979,-57.073563,0.42123571,28.761019
97403500,0.21452737,-115.36705,0.0009748895,-49.682579,65.500961,-60.181591,0.7772091,23.186466
97903000,0.20828563,-117.3465,0.0013592474,-19.854095,68.718521,-64.541344,0.66838056,18.912882
98402500,0.20965396,-117.3721,0.00015417224,141.18527,72.335938,-67.943939,0.45761785,-1.1374637
98902000,0.21062525,-118.44932,0.00063781562,138.53772,72.664902,-71.150345,0.53710407,-14.103663
99401500,0.19708398,-120.38273,0.0014514998,-36.667999,73.251297,-76.770271,0.7120229,-13.931108
99901000,0.20228709,-122.40675,0.00074152916,127.34075,76.178535,-79.763008,0.52501726,14.026489
100400500,0.19601335,-122.3083,0.00089239288,-84.915207,77.741364,-83.470314,0.54324007,11.008256
100900000,0.19323969,-126.41145,0.0017406578,40.411861,79.195908,-87.311188,0.65292192,10.789371
101399500,0.18793122,-125.29235,0.0013294836,2.2215371,80.38591,-91.818245,0.60642338,9.5401402
101899000,0.1955457,-124.79311,0.00089179474,-145.95294,85.088799,-94.988068,0.28701466,-35.111694
