!CSV A.01.01
!Keysight Technologies,P5024A,MY58100101,A.13.90.09
!Date: Friday, January 24, 2020 14:01:00
!Source: Standard

BEGIN CH1_DATA
Freq(Hz),S11(MAG),S11(DEG),S12(MAG),S12(DEG),S21(MAG),S21(DEG),S22(MAG),S22(DEG)
10000000,0.9739126,-90.767723,0.0015571809,161.92117,0.0042738053,-120.45099,0.59825021,-160.25725
10995000,0.96943212,-100.14625,0.00013429395,8.5961618,0.0038398395,56.005146,0.55751103,-172.31403
11990000,0.95897961,-109.37715,0.0031056402,-47.088467,0.0011918268,112.81643,0.52028531,175.04968
12985000,0.96110147,-118.57426,0.0021849822,81.375389,0.0033901208,-143.89456,0.49382204,164.14516
13980000,0.95347822,-128.2379,0.0015153736,142.57391,0.0023574422,-12.894569,0.46275026,152.51836
14975000,0.95733678,-137.71883,0.0010176792,-40.124985,0.0039844275,32.402222,0.44499585,141.8777
15970000,0.95554149,-147.68463,0.0011980713,-34.789478,0.0018968554,-154.23036,0.42417336,130.4585
16965000,0.94230658,-157.50638,0.00079266768,-34.635609,0.0038886182,9.0804682,0.40564543,119.16863
17960000,0.93517911,-167.61229,0.002714888,-138.85605,0.0024839172,55.977325,0.40040606,108.56347
18955000,0.92765254,-178.0009,0.0013359176,-59.361816,0.0039775637,133.86505,0.36918506,98.594086
19950000,0.92562574,171.2439,0.001817006,1.7557912,0.0039326893,140.61543,0.37301448,88.717529
20945000,0.91862619,160.50467,0.0021345555,33.322224,0.003839273,-141.86903,0.35353988,78.396286
21940000,0.92042965,149.14067,0.0042228778,-135.46451,0.00096120324,-133.26183,0.33922058,68.504913
22935000,0.91818196,137.15312,0.0040451298,-19.500589,0.00034988555,-17.014929,0.32920849,60.894867
23930000,0.92978019,124.18031,0.0038119755,-76.638359,0.0042705899,-8.220479,0.33177316,51.307148
24925000,0.93696672,110.4192,0.0023940499,-172.07051,0.00024584026,-67.363823,0.33249652,41.446171
25920000,0.96257162,95.378212,0.002951402,-80.549217,0.0016544465,165.78966,0.32749045,32.337982
26915000,1.0091686,78.124428,0.00021550593,108.90601,0.0037295336,-120.11,0.32612655,22.974478
27910000,1.064894,57.523384,0.0045895302,101.103,0.0018988759,170.0677,0.32522467,12.727329
28905000,1.1621977,28.647249,0.0021959024,-40.835091,0.0029615103,55.979942,0.32623422,4.2895355
29900000,1.2489091,-8.245615,0.0040265857,59.218521,0.002429195,87.152916,0.33147079,-3.1507585
30895000,1.1923614,-59.921204,0.0016103821,68.859962,0.0017128005,-125.31682,0.32246912,-14.520021
31890000,0.94446748,-113.07342,0.0008369541,113.76359,0.0062440154,-116.57442,0.32019576,-21.989883
32885000,0.71197772,-157.10887,0.0037690522,163.02589,0.006006971,158.2352,0.32314605,-30.79744
33880000,0.56867576,167.68742,0.0032977697,134.02751,0.0049808617,-58.103592,0.33892274,-41.65752
34875000,0.51518708,140.32013,0.0071198205,-163.58739,0.0021935981,141.63712,0.33793926,-47.571232
35870000,0.46671957,117.73819,0.0045647775,48.968258,0.0040178797,-97.769974,0.31968281,-57.147221
36865000,0.45466125,98.412521,0.0020425781,-62.61462,0.009752254,133.0553,0.34308603,-67.211014
37860000,0.43645608,85.000511,0.0027599372,4.3986983,0.0067547564,95.237991,0.32646126,-72.863831
38855000,0.43241867,69.83474,0.0042510326,-12.584158,0.0091591403,-9.4368811,0.32543859,-80.307381
39850000,0.43312854,54.530842,0.0059042573,139.4487,0.006621351,91.004837,0.3486937,-88.626892
40845000,0.40741295,43.043385,0.0015502507,122.7548,0.0085390322,122.93905,0.34029898,-98.716766
41840000,0.39746669,31.986366,0.0030149401,104.34342,0.0085956687,-162.72861,0.3620398,-102.12069
42835000,0.37588096,17.622307,0.0027598031,-93.623146,0.01460652,24.405472,0.35300118,-114.25417
43830000,0.37365162,6.2860751,0.0029598856,-124.70244,0.013531554,55.850002,0.3450962,-119.40562
44825000,0.35948858,-4.4010286,0.0028265137,93.888145,0.0047761984,37.432362,0.35080394,-126.63537
45820000,0.34824422,-14.110385,0.0035354747,-84.800079,0.0055446983,10.398194,0.35563746,-134.17247
46815000,0.34025234,-27.471298,0.0082901651,-54.748508,0.0050448212,-103.55456,0.36271092,-141.94658
47810000,0.32191259,-40.024071,0.0049876636,176.8932,0.0095863659,122.2407,0.35320324,-147.54443
48805000,0.31376725,-50.633579,0.00062210346,-105.95419,0.010835499,-83.955429,0.35727295,-158.43361
49800000,0.29648218,-61.777485,0.0020065801,-134.67435,0.001603039,27.500107,0.34915054,-164.10838
50795000,0.29057154,-74.702217,0.0037717291,48.857166,0.0022603907,-146.97908,0.35594648,-172.05153
51790000,0.27205166,-87.210159,0.00060224411,56.928997,0.0023370031,83.059242,0.36959323,-179.20146
52785000,0.26532158,-98.370102,0.0035251263,-7.3685031,0.008828911,156.00461,0.36395282,174.71675
53780000,0.25585964,-110.91926,0.0063149557,-8.2398977,0.008805247,172.98743,0.36677974,166.73534
54775000,0.23844686,-126.57259,0.0015208004,47.289761,0.010316679,161.28374,0.36736333,160.963
55770000,0.23242573,-139.94141,0.0012273476,-61.807926,0.0077429824,-19.228933,0.37803283,152.14761
56765000,0.23281513,-153.30649,0.0039819079,27.170628,0.0083566271,-18.077616,0.38395897,146.00171
57760000,0.20699051,-165.79059,0.0032639336,41.12785,0.0058385963,-97.488861,0.38037789,139.04819
58755000,0.20535086,178.4836,0.0023855886,-148.05971,0.0063579157,149.1817,0.38690615,132.05775
59750000,0.20732355,164.50073,0.0028788352,130.7318,0.0035509279,103.11319,0.38719144,123.50832
60745000,0.20094101,146.45587,0.0024207889,-74.805214,0.010215728,98.220863,0.38731283,117.24099
61740000,0.21042944,133.9185,0.00079675583,59.608414,0.0061390419,-49.199806,0.38973394,109.54812
62735000,0.21858558,116.09005,0.0030060736,-156.63023,0.0125883,160.99881,0.3875258,103.91087
63730000,0.2157917,102.86399,0.0024612816,-135.55997,0.01392738,99.082657,0.38734782,96.537941
64725000,0.21625765,89.302055,0.0018262278,-179.79724,0.0057496768,117.53613,0.4026269,88.647827
65720000,0.23573928,75.134819,0.0013917803,-116.03841,0.0088087227,121.66683,0.39224282,82.590744
66715000,0.23574418,61.086632,0.0023673857,32.632664,0.0088827536,-169.80646,0.39621276,76.804565
67710000,0.25021118,46.348396,0.0024032292,-27.631918,0.012804498,153.01302,0.40577915,69.017242
68705000,0.26219547,34.648415,0.0043879766,-57.43084,0.0058345743,171.34801,0.40741932,59.674435
69700000,0.27053064,22.329903,0.0052714804,-106.59743,0.0058972687,-21.776514,0.42357907,54.526913
70695000,0.27132601,8.1817188,0.0039974055,49.434788,0.0030519608,172.87296,0.40676883,49.537674
71690000,0.27896699,-2.302145,0.0043645352,44.199883,0.0047395797,-10.437959,0.42396459,40.831573
72685000,0.29624873,-16.24114,0.0016575236,-165.43619,0.0016403612,13.231787,0.42237684,34.53373
73680000,0.29944456,-26.877167,0.0057715825,72.536781,0.011092169,113.47903,0.41812512,28.850313
74675000,0.32000637,-34.846493,0.0038330187,-145.95236,0.0019925516,16.475142,0.41337088,20.29767
75670000,0.32319105,-49.133217,0.0036315741,-28.687511,0.0065795975,164.23618,0.43190861,14.586128
76665000,0.33484674,-58.254383,0.0017984369,176.15221,0.0056140176,-120.58015,0.44202641,9.008091
77660000,0.33182719,-70.765778,0.0035650595,-154.57597,0.0052907784,75.034515,0.43212104,-0.062152442
78655000,0.33582503,-78.609642,0.0021268572,79.278603,0.011110154,77.351692,0.43786398,-6.7264342
79650000,0.32870167,-89.305992,0.0040809698,85.72345,0.0040860204,-18.444048,0.45247576,-12.452073
80645000,0.34599137,-100.22377,0.0014738926,39.540779,0.0039335419,10.309243,0.43621099,-20.46586
81640000,0.32706636,-107.8865,0.0043729167,125.03033,0.0051025827,-17.725853,0.4578315,-25.394499
82635000,0.34437662,-117.25271,0.0027086611,131.08286,0.0062967367,-14.346356,0.45238787,-34.252022
83630000,0.32880366,-127.69044,0.0055775819,116.77352,0.0012813063,-22.335527,0.44888705,-38.158344
84625000,0.33783555,-137.25432,0.005082035,-117.73752,0.0054404805,-130.59518,0.4591755,-47.58437
85620000,0.33072272,-147.18909,0.0041329837,-4.3530788,0.0014918732,-177.23398,0.4547177,-54.74802
86615000,0.32677507,-155.39755,0.0028255794,-161.58598,0.0018519708,-64.796585,0.4542101,-59.432289
87610000,0.32228208,-164.72343,0.0074168723,78.625992,0.0083218748,12.717658,0.46736839,-66.30455
88605000,0.31571105,-172.16748,0.0030989193,1.2854095,0.0094465911,97.065666,0.46505028,-73.731468
89600000,0.31624803,179.06668,0.0007176103,178.9639,0.0094384858,-151.14165,0.47055098,-80.326515
90595000,0.30595574,170.67964,0.0041906456,-57.512577,0.0056115389,149.65605,0.4660657,-88.280182
91590000,0.30347162,165.06216,0.0043875696,26.929903,0.0067039435,109.61393,0.47234434,-94.225098
92585000,0.29859388,155.04097,0.0020207858,137.6467,0.0048301718,-131.44699,0.47610688,-100.74638
93580000,0.28943551,147.67349,0.00076667871,68.640564,0.0057276012,-105.14218,0.47830969,-106.317
94575000,0.28973684,136.83,0.0020773192,-98.154099,0.0063115507,23.452002,0.4855859,-112.87777
95570000,0.28142861,134.30708,0.0030740022,-100.66012,0.0070156702,-150.61253,0.50379485,-120.14059
96565000,0.27292356,126.96143,0.0027595882,-47.863579,0.0029460697,1.9379059,0.48557705,-126.39345
97560000,0.2738699,117.14448,0.0015479142,-0.62353551,0.004579945,49.487728,0.47915825,-133.42146
98555000,0.26088411,111.60641,0.002760021,-34.300297,0.016406769,-172.82468,0.49788433,-139.46533
99550000,0.2526252,103.80192,0.0013844498,107.96746,0.010432659,-92.660126,0.49651539,-146.82587
100545000,0.25340652,95.804779,0.0041911304,149.92445,0.0073427195,153.13239,0.49326786,-154.1236
101540000,0.2395025,90.151443,0.0014974847,58.284,0.0077330796,-40.966774,0.50203902,-159.93532
102535000,0.23771285,81.886177,0.0032310465,-150.00497,0.0011724967,-26.632235,0.51148331,-168.63448
103530000,0.23004498,76.199089,0.0037202481,152.31998,0.014435565,50.206856,0.50746059,-174.13176
104525000,0.24037033,68.604172,0.0034875835,134.78015,0.022948379,60.529129,0.50249439,-178.96124
105520000,0.22519188,62.181641,0.0054618842,-43.308102,0.011459302,76.828232,0.51340425,172.21545
106515000,0.21457018,58.297283,0.0006342085,12.671296,0.0010927288,109.87443,0.51578176,166.37814
107510000,0.21638994,50.138229,0.0013736053,141.71231,0.013758028,-24.046637,0.52489263,158.38336
108505000,0.21843642,44.780338,0.0020034446,-23.768181,0.0080215298,-143.851,0.52974468,150.36829
109500000,0.21501878,37.820713,0.002660736,116.83238,0.01579077,-163.24254,0.53349102,144.48306
110495000,0.19747338,27.712971,0.0034770172,160.60161,0.0060985163,96.307365,0.51439029,135.99294
111490000,0.19792031,24.515524,0.0043040272,-35.801056,0.012931548,148.78821,0.52547818,129.66467
112485000,0.19976117,17.230413,0.0036369266,-141.45634,0.013493652,116.88182,0.52902991,120.20946
113480000,0.18801147,14.403888,0.0032629611,-7.4979496,0.010584838,179.0213,0.54158562,113.31995
114475000,0.18259294,5.9838872,0.0056205029,-142.22421,0.0048808698,101.23811,0.52713287,106.36033
115470000,0.18565732,1.2465633,0.0011446694,172.48485,0.019457737,78.988663,0.52956581,96.82077
116465000,0.17971949,-2.7574134,0.0030792297,-96.73246,0.0078554219,-105.94611,0.53107375,90.558922
117460000,0.18082468,-14.273094,0.0036494853,-126.12577,0.0067397784,77.583519,0.54128653,81.929688
118455000,0.17253488,-16.502226,0.0023678439,96.070602,0.0085005704,38.253189,0.51242357,73.182487
119450000,0.16740283,-25.058359,0.0037729042,123.08225,0.02111857,-43.034176,0.51101738,64.225082
120445000,0.16256231,-25.10569,0.0023297698,153.15186,0.011561828,-63.120209,0.48951927,54.590717
121440000,0.17096898,-36.978062,0.0023657263,-22.255749,0.0043010195,25.277596,0.47493681,43.46973
122435000,0.16858917,-37.85553,0.0050988104,-26.466074,0.019133566,-144.77081,0.47051474,34.925159
123430000,0.16695794,-47.665871,0.0028790175,-11.23411,0.011971241,-160.13423,0.41729146,27.291935
124425000,0.15759978,-53.094879,0.0026564035,147.53316,0.0085484469,-149.46442,0.36331862,18.05283
125420000,0.15295459,-59.639431,0.0020471171,106.23048,0.011114464,-67.338211,0.34835228,10.686602
126415000,0.16064286,-63.898529,0.00041266618,-59.53688,0.040928159,104.08564,0.2853379,6.8847375
127410000,0.14913526,-68.067467,0.0048249485,-78.597786,0.0073036221,37.577305,0.26362106,4.1747451
128405000,0.15388781,-70.906731,0.0020524561,166.76616,0.030241912,81.967133,0.2185917,4.5776482
129400000,0.14138781,-74.158737,0.0014196794,-49.234928,0.028440634,23.370907,0.2436689,3.1074994
130395000,0.14784792,-82.75869,0.0045630815,-65.971916,0.0096189464,-131.35028,0.25614703,-1.3245933
131390000,0.1406641,-92.396072,0.0015187203,170.2041,0.023439145,-89.164833,0.25785381,-6.0623145
132385000,0.13603084,-89.576866,0.0038523818,4.1828117,0.0086187515,15.599955,0.26636925,-7.0886755
133380000,0.13533702,-96.124336,0.0018457155,15.147954,0.013875284,-138.81458,0.25025856,-9.8518171
134375000,0.14465077,-102.61064,0.0012154084,159.49918,0.0041887066,-84.541962,0.25071517,-21.572126
135370000,0.14389679,-111.58997,0.0027359868,-174.59657,0.0064727329,-166.28581,0.23621193,-24.723925
136365000,0.13090707,-112.73843,0.00242754,-38.129093,0.031774357,140.31248,0.25196019,-24.655998
137360000,0.13082835,-118.15002,0.0039072847,79.604042,0.015287763,147.52184,0.26959825,-33.166725
138355000,0.12881665,-122.70529,0.0063000107,122.89144,0.021721762,130.11655,0.27623552,-36.594704
139350000,0.12648605,-134.43726,0.0020858231,140.41646,0.021115148,36.973091,0.22117628,-45.641476
140345000,0.13250694,-134.81424,0.0022004247,-111.03975,0.021888958,36.669373,0.24874693,-55.439438
141340000,0.13394445,-143.23868,0.0036196848,125.94929,0.018658994,73.418144,0.22562046,-56.6054
142335000,0.13141927,-141.02348,0.0045376117,7.8793206,0.013817161,-13.443047,0.23177508,-69.168457
143330000,0.12419721,-145.82292,0.0024559873,-115.86957,0.030218549,-76.042572,0.21076973,-69.713806
144325000,0.12622036,-152.22853,0.0014167713,-25.026667,0.037370358,-78.638786,0.207672,-76.151054
145320000,0.12866561,-156.19756,0.0050394339,-149.28027,0.0085552474,-164.88394,0.22596762,-85.207649
146315000,0.12193326,-165.24521,0.0028387783,-84.813873,0.025723031,-176.34637,0.2246193,-85.57106
147310000,0.12430093,-170.56726,0.0030682147,-159.21819,0.017270729,127.66394,0.19785357,-97.035088
148305000,0.1274464,-171.53384,0.0042156684,-30.585632,0.013152475,-173.06187,0.19597702,-98.572197
149300000,0.13126378,-177.96211,0.0023264498,135.71492,0.033574786,148.8571,0.17702146,-98.256935
150295000,0.13765644,178.75241,0.0039907428,-93.656723,0.01106119,127.36626,0.18910769,-106.28356
151290000,0.12059479,170.71352,0.0031337275,166.76289,0.014068953,53.630226,0.1534743,-112.48946
152285000,0.12931204,165.00365,0.0021189544,78.422066,0.0061185025,171.77631,0.17875636,-114.00896
153280000,0.11944076,164.02814,0.0021441609,47.633823,0.01944929,59.442509,0.18200846,-127.14787
154275000,0.1252476,160.26971,0.0037010736,135.55142,0.023032807,-39.811794,0.1395267,-116.22388
155270000,0.12307407,152.95924,0.0037720134,27.208977,0.01230101,-107.32172,0.15269676,-137.91872
156265000,0.12485124,144.92155,0.0007530601,-143.09445,0.024380971,-127.056,0.14316782,-136.99762
157260000,0.13048729,142.32547,0.0038392856,-78.88269,0.017931629,-159.57257,0.15958668,-123.1047
158255000,0.12454458,138.62714,0.0030405668,-143.71779,0.024063546,-136.04913,0.15254283,-130.72321
159250000,0.12305994,132.1834,0.0048872707,128.57021,0.022122603,100.4714,0.15291338,-152.35661
160245000,0.12074759,124.80773,0.00041301959,-173.14299,0.0057653449,-159.97836,0.14164335,-146.66289
161240000,0.12889367,123.2261,0.0024584027,-163.58902,0.021469111,-177.11577,0.1383168,-144.92149
162235000,0.13052554,114.56267,0.0055816285,-6.6662064,0.022583481,69.734421,0.13255073,-154.85857
163230000,0.12344916,112.47202,0.0011985075,-169.08858,0.024692258,95.337288,0.15056637,-153.29265
164225000,0.11928469,106.59138,0.00057760661,107.97836,0.018428579,61.111977,0.17623369,-158.39052
165220000,0.12411118,100.98053,0.0023841267,156.5728,0.024298668,23.41799,0.14870507,-152.51926
166215000,0.12213498,91.515152,0.0024672132,27.158447,0.0048277345,-87.294128,0.18193778,-162.6559
167210000,0.1232683,87.945091,0.0037347679,139.97203,0.013773439,3.1583693,0.15487391,-168.7951
168205000,0.11947157,82.858849,0.0027357102,148.54617,0.02306064,-47.979385,0.15800281,-176.761
169200000,0.12427686,81.200157,0.0023604466,-12.943101,0.01284942,151.32286,0.16247392,171.80492
170195000,0.11865702,74.260101,0.0019285587,-30.545313,0.029366467,-173.96011,0.177233,-179.06088
171190000,0.13368326,66.370079,0.00035362924,-4.6833482,0.019469235,132.52029,0.16280571,177.04297
172185000,0.12191405,64.854378,0.0019214145,-107.62212,0.014488614,91.586357,0.18036915,172.0341
173180000,0.10894856,66.093124,0.0027586876,110.94936,0.021336161,118.49787,0.1962284,165.72456
174175000,0.12327209,55.380825,0.0049918941,173.47951,0.013880803,140.84137,0.19444464,163.29521
175170000,0.11998359,54.056438,0.001305408,125.36203,0.043584015,89.866959,0.197321,151.02826
176165000,0.13001324,45.891644,0.0054523963,1.1427943,0.0028601068,-40.533665,0.18682411,155.10594
177160000,0.11977796,34.325813,0.005930807,-168.14502,0.032912847,57.068775,0.2059395,147.56552
178155000,0.12596422,30.692484,0.0015728492,69.161293,0.033102956,46.190029,0.20658104,136.358
179150000,0.12303362,31.714649,0.0018682962,-145.96983,0.022328094,-57.194988,0.20137829,138.76703
180145000,0.12967622,25.200182,0.0027367424,-79.736023,0.018191392,-20.45787,0.21402562,127.34296
181140000,0.12579204,13.716895,0.0013383511,87.020187,0.0042064488,-163.79654,0.21504714,128.15491
182135000,0.13071208,9.6526003,0.001422463,44.166405,0.038582727,-100.91484,0.23841122,125.24145
183130000,0.12924474,3.3543372,0.0027404842,162.75383,0.024366107,-179.52579,0.22396265,114.07047
184125000,0.11392324,-1.229761,0.0014058136,14.167295,0.022132505,-172.72922,0.22753824,105.81582
185120000,0.1159142,-2.4733505,0.0021473984,-36.398388,0.010004694,145.42973,0.24877748,107.20094
186115000,0.12497102,-10.897841,0.00076448475,34.157181,0.0162866,54.80891,0.22829968,98.540176
187110000,0.12478539,-15.084332,0.0025654216,-161.8535,0.033524416,102.64681,0.24366467,92.950935
188105000,0.12527804,-25.919991,0.0018900717,141.9623,0.0080153001,3.2885642,0.24389637,86.04512
189100000,0.13997647,-23.646032,0.001772254,-91.903152,0.010584619,-93.83371,0.24093436,82.423058
190095000,0.1491075,-25.366713,0.0048440835,-75.771378,0.025557226,82.97332,0.24320562,74.353966
191090000,0.11658868,-37.41824,0.0027279835,48.632114,0.024223231,-30.812902,0.23653023,72.800568
192085000,0.13780043,-40.37318,0.0064012958,-162.1869,0.010666184,173.6991,0.24673802,62.757248
193080000,0.14827459,-51.784683,0.0045581954,-84.130455,0.0080095204,66.163147,0.27448115,57.717537
194075000,0.14005499,-53.894081,0.0031878257,5.8241892,0.019513199,-99.668167,0.26343226,52.70668
195070000,0.13851012,-60.617226,0.0053685773,173.76273,0.036991142,-100.74948,0.26333547,50.121109
196065000,0.12903614,-61.509426,0.0044807866,9.0386591,0.012487192,166.86461,0.26844552,40.347492
197060000,0.13201082,-66.520569,0.0020125145,-125.47596,0.017688645,-161.87209,0.28025001,38.60289
198055000,0.1317887,-74.881363,0.0039735259,-171.3808,0.015257472,50.548096,0.27376634,27.712603
199050000,0.14356533,-79.148636,0.0046202466,132.08661,0.032836419,121.2409,0.25095034,24.756153
200045000,0.12969308,-85.436569,0.0014394035,6.1238513,0.03301863,145.14963,0.28085628,16.397793
201040000,0.13799712,-91.98967,0.00077403319,93.322762,0.022093128,112.91552,0.28258747,12.719545
202035000,0.13235575,-95.592857,0.00076609815,3.2706046,0.017331801,77.477356,0.27762792,7.3876977
203030000,0.13450187,-100.01292,0.00091516,-82.988976,0.013781032,46.120121,0.28004915,5.1309948
204025000,0.13396044,-106.88238,0.0042532342,63.860809,0.0082792211,41.374939,0.26761743,-6.1829343
205020000,0.13829179,-110.87631,0.0030078834,-91.420296,0.019040173,-12.904769,0.29663095,-9.7768631
206015000,0.13582842,-114.77695,0.0032481782,14.100036,0.0054287137,-51.317513,0.27411866,-15.908576
207010000,0.133433,-120.74352,0.0031152894,174.82439,0.01572524,-63.594826,0.2821255,-20.548601
