!CSV A.01.01
!Keysight Technologies,P5024A,MY58100101,A.13.90.09
!Date: Friday, January 24, 2020 13:33:37
!Source: Standard

BEGIN CH1_DATA
Freq(Hz),S11(MAG),S11(DEG),S12(MAG),S12(DEG),S21(MAG),S21(DEG),S22(MAG),S22(DEG)
10000000,0.95072728,-118.05873,0.00074320979,11.310338,0.00028754995,79.885757,0.02092872,-179.07727
10995000,0.94586343,-130.30238,0.0021312281,25.339838,0.0092032207,-24.915186,0.012922286,-150.7148
11990000,0.93383813,-141.85416,0.002998342,26.363573,0.016989995,-136.77151,0.00852348,-170.46553
12985000,0.9259215,-153.70966,0.0045750532,-3.4309506,0.0045640175,171.7112,0.012684169,121.04282
13980000,0.90693855,-165.80367,0.00067529106,-42.867382,0.0076834057,84.798012,0.0048376182,67.627251
14975000,0.88698715,-177.10115,0.0031616227,-117.04107,0.01320793,179.75545,0.014768445,-3.2694407
15970000,0.86991251,170.69427,0.0021287566,48.235771,0.01540241,158.6147,0.013403622,10.798352
16965000,0.85829735,159.15625,0.0022837818,105.90204,0.020239931,-172.4753,0.012077299,-17.809137
17960000,0.83867031,147.8318,0.0025874199,-20.230583,0.0081882775,-10.886216,0.01172428,-54.727711
18955000,0.82917434,136.24895,0.0047168233,-97.601906,0.03168267,102.87926,0.017199254,-55.656067
19950000,0.82382625,124.31951,0.0018310151,39.837093,0.047998432,-93.989738,0.016544862,-53.614021
20945000,0.8142578,113.40125,0.0055966694,15.666274,0.014254664,112.12479,0.011918609,-74.816353
21940000,0.8009482,101.46176,0.00092265406,172.01196,0.047592301,-121.65071,0.0077595185,-79.439987
22935000,0.78965396,89.654457,0.0019383021,146.10744,0.020886073,162.99297,0.019472353,-80.716385
23930000,0.7784214,78.45192,0.0026779564,-21.890308,0.0063698906,171.49211,0.015697284,-99.084122
24925000,0.76876205,66.784348,0.00030775342,78.761955,0.016398419,134.60074,0.026970364,-143.83519
25920000,0.77285874,55.240959,0.0018990112,-169.02975,0.045884412,-175.61517,0.017360672,-160.3808
26915000,0.75750738,43.744923,0.0015435106,41.684059,0.07922706,-169.93828,0.020319169,-145.53059
27910000,0.74787533,32.139072,0.0028550562,-3.699867,0.1112904,-163.61607,0.015707199,-162.76683
28905000,0.73747402,19.724979,0.0022826574,-145.58939,0.065526649,107.11567,0.0078518083,174.13251
29900000,0.73013514,7.9430566,0.0042197788,-37.120991,0.096299708,121.91972,0.01190484,-177.39221
30895000,0.71201015,-2.15309,0.0066169649,-47.412167,0.31232023,153.82965,0.0232259,142.92017
31890000,0.73439223,-16.203934,0.0021607189,-113.6889,0.057964619,170.14619,0.034111328,-146.48816
32885000,0.71031213,-26.928354,0.0024647692,106.16685,0.16144012,135.0975,0.056366682,-135.0761
33880000,0.7004742,-37.987305,0.00099156378,-40.793522,0.17734371,55.854527,0.038565263,10.61703
34875000,0.68273431,-50.823009,0.0024754885,53.976025,0.2147823,86.03334,0.022492314,-151.51578
35870000,0.66968703,-64.088028,0.0025186827,97.05883,0.48195007,53.950089,0.024973171,-97.390137
36865000,0.64734459,-75.822639,0.0033925835,72.802116,0.51746297,74.203217,0.050781325,-76.87336
37860000,0.63989687,-88.770386,0.0022308589,177.81424,0.63189745,50.720318,0.037324917,-106.15397
38855000,0.63043386,-100.53327,0.0021883247,27.503357,0.74610621,43.49411,0.033463776,152.47401
39850000,0.59524417,-112.81453,0.0030048979,-102.0345,0.83887082,12.947065,0.042153206,-87.967529
40845000,0.56974316,-124.97606,0.0036405097,-33.879814,1.3493648,11.084547,0.020869752,23.601202
41840000,0.54372185,-138.47408,0.0033032263,-125.90099,1.4939276,-4.8224111,0.0054634735,115.74675
42835000,0.52063632,-149.40077,0.0019737459,-175.61421,1.6277897,-16.722309,0.0527796,-163.40569
43830000,0.48956069,-161.16316,0.001439138,91.780472,2.1829243,-37.974895,0.051660795,-114.92722
44825000,0.46401918,-172.48885,0.0042327438,-97.351784,2.4690371,-54.305061,0.035712034,97.822105
45820000,0.43221292,175.91296,0.0022884994,-18.303444,2.8290517,-64.66993,0.0078374296,-71.549042
46815000,0.4075577,165.23087,0.0021469314,-70.050362,3.1382151,-83.366249,0.0093299784,-162.98773
47810000,0.38510105,153.66588,0.0012813681,-152.50273,3.4532955,-98.19104,0.026403842,-111.04921
48805000,0.36632279,142.92117,0.0012056977,116.13673,4.1383357,-111.24123,0.04691042,101.59039
49800000,0.34582809,133.47473,0.0068158107,-31.016773,4.6652427,-128.60423,0.022572596,24.626074
50795000,0.33313832,123.36961,0.001865935,30.277719,5.0640297,-136.35144,0.0095515382,-106.59853
51790000,0.30232888,113.5153,0.0055631511,117.0024,5.6937866,-150.50655,0.029469976,-31.246668
52785000,0.28382733,106.20322,0.0041704415,-167.53441,6.0569835,-165.70357,0.041900571,-87.346031
53780000,0.26866987,96.997528,0.00034912559,-125.73878,6.9930644,-179.25488,0.017508879,78.311478
54775000,0.26084042,87.719215,0.0020174971,-127.76832,8.0839567,168.37477,0.044791192,131.92386
55770000,0.24628803,80.383698,0.0047673299,146.26776,8.5515251,154.7151,0.061025668,96.194893
56765000,0.23309991,68.810463,0.0039119651,110.87136,9.3324432,141.20932,0.087154895,64.724075
57760000,0.22082976,62.294426,0.00039158622,-175.72807,10.52434,129.52403,0.04057847,56.715755
58755000,0.22645606,55.423233,0.0039398889,-131.76991,11.716031,116.68557,0.050527479,129.92096
59750000,0.20441109,45.080864,0.0040576011,163.82991,12.651478,104.12423,0.023312707,41.818172
60745000,0.18993609,38.652466,0.0051162145,-170.02638,13.982932,92.798676,0.03714145,55.460697
61740000,0.18476585,30.647097,0.0048295278,-61.192104,14.99498,78.420586,0.063152619,168.88818
62735000,0.19340463,21.987589,0.0018576481,-21.921188,16.371187,66.906906,0.023365574,69.798813
63730000,0.19779235,14.889471,0.0028116892,-105.6908,17.944105,53.296665,0.07009688,75.103302
64725000,0.18469198,9.0531492,0.0058045713,90.748398,19.465357,41.399914,0.098757021,64.926109
65720000,0.16819641,3.859915,0.0028320062,17.678041,20.57494,29.765778,0.018417565,-71.993454
66715000,0.15559697,-3.1502659,0.0023772418,40.045555,22.007532,17.671822,0.027215129,81.611511
67710000,0.16872905,-12.339086,0.0013564565,-96.200287,23.849073,4.6129603,0.037684884,165.71962
68705000,0.15013874,-19.803339,0.0008716234,111.65133,25.326183,-5.9472485,0.058925118,-28.810982
69700000,0.15347345,-27.965324,0.00094623538,170.05995,27.133482,-19.056107,0.048574429,-2.2141948
70695000,0.15132585,-34.008095,0.0013292286,111.37083,29.004093,-30.537859,0.029970547,-152.94023
71690000,0.13470405,-40.066772,0.0038484428,104.26421,30.114698,-42.722816,0.048473313,57.150024
72685000,0.14558668,-49.930229,0.0067264023,110.53298,32.229012,-54.795082,0.082024552,-30.463234
73680000,0.14872244,-50.729595,0.0042499979,95.972618,33.905643,-66.855721,0.027521214,-84.01355
74675000,0.14020164,-60.157928,0.001878727,124.18555,35.204975,-78.742401,0.041401435,-26.685131
75670000,0.13708077,-67.448601,0.00282491,-0.16355598,36.913868,-90.161423,0.064225696,32.815384
76665000,0.14329301,-72.735847,0.0035417085,-77.393089,38.945084,-102.15814,0.036613647,25.096636
77660000,0.12369438,-78.424393,0.0019463883,-103.92928,40.12431,-112.86138,0.059349835,-14.696533
78655000,0.13628159,-88.671532,0.00088926422,171.72781,41.839474,-124.89613,0.060058899,-155.63724
79650000,0.13123907,-92.263435,0.0038017638,-110.45301,43.567074,-136.05688,0.051149774,132.66566
80645000,0.12970243,-100.78208,0.0042322958,98.273933,44.345757,-146.94844,0.044650149,43.089111
81640000,0.12674278,-109.75036,0.0034856119,164.49927,45.693157,-158.29036,0.088811122,-66.372139
82635000,0.12393979,-116.65266,0.0025742929,-162.37904,47.170738,-169.35783,0.076829143,-102.59458
83630000,0.12163711,-120.48799,0.0047810054,42.549007,49.048672,179.90247,0.085584871,-76.789963
84625000,0.13216439,-122.05598,0.0048983744,139.88776,49.98267,168.3311,0.046072833,-33.961483
85620000,0.12751783,-134.68254,0.0014778291,11.757508,51.110085,158.48007,0.027154054,-40.514927
86615000,0.12982006,-137.44986,0.0014938666,-42.99649,51.815445,147.30768,0.067634299,42.018127
87610000,0.12146525,-142.45238,0.0026174134,125.08384,53.176785,136.65851,0.049414694,-131.50317
88605000,0.12775153,-148.97523,0.0045129596,82.083321,53.912956,126.18932,0.040110808,178.14615
89600000,0.12545162,-158.761,0.0010305466,128.00993,54.675941,116.37189,0.046872761,-80.286331
90595000,0.1309384,-163.29602,0.0041547585,-144.44446,55.777344,106.31742,0.096567571,-74.766533
91590000,0.12509009,-169.62967,0.0035893784,141.44548,56.111607,96.134399,0.019470509,-150.56232
92585000,0.12659575,-174.57283,0.0014976304,24.874479,56.701511,86.155128,0.021702396,-49.028313
93580000,0.12706202,179.07935,0.0015459836,-176.36337,57.225227,76.014793,0.067133643,-118.6009
94575000,0.1164209,171.79698,0.0035825525,177.47777,58.804874,66.43969,0.081136107,-5.1640177
95570000,0.12068417,164.23662,0.0019500162,-125.8523,59.804085,56.903358,0.089330032,-26.543547
96565000,0.10870306,161.00703,0.0030889057,-123.73064,60.263672,46.715351,0.081897534,14.256261
97560000,0.11841173,151.76183,0.0038592946,-11.719746,60.51453,37.80188,0.06805747,162.69406
98555000,0.12097766,145.4149,0.0025231931,-58.177353,61.164173,28.361576,0.097738892,168.40582
99550000,0.12093817,139.04909,0.0029802918,-29.937355,61.871681,19.382278,0.059104994,162.84479
100545000,0.12331851,135.44954,0.0044351742,61.476608,62.8279,9.7669106,0.025488986,107.98499
101540000,0.12513939,131.59387,0.00039588948,29.395113,63.227337,0.87286657,0.031834163,67.940414
102535000,0.11488514,120.67114,0.0017904445,92.596848,63.74369,-8.4296141,0.067631736,73.548027
103530000,0.12635015,117.49265,0.0011768128,167.59178,63.645638,-16.72743,0.020073541,-82.035065
104525000,0.12236042,107.90263,0.0031117995,-76.424622,64.466179,-26.703827,0.019911731,48.344185
105520000,0.12550133,106.342,0.0008553252,-173.34859,65.177246,-35.363995,0.091051936,138.43584
106515000,0.12003241,97.725426,0.0023177527,-24.822691,64.985718,-44.625965,0.032636113,86.705978
107510000,0.10063201,91.86264,0.001732089,-37.964291,65.706619,-53.874142,0.071237437,-169.92218
108505000,0.11888367,88.41925,0.0021481349,-95.990112,65.574821,-61.854584,0.095914975,39.260426
109500000,0.11875848,81.477539,0.00029787995,58.105415,66.476852,-70.445175,0.05760514,-69.297615
110495000,0.12397189,77.770767,0.0019202471,125.14624,66.517517,-78.868912,0.028657245,-172.85692
111490000,0.11287131,68.072449,0.00052919757,30.521244,66.65004,-88.03389,0.014510294,107.68733
112485000,0.12493671,69.491547,0.0039154263,142.83606,66.955475,-95.800301,0.069012381,57.302727
113480000,0.11045571,58.463402,0.0041553336,-177.90572,67.406204,-105.02841,0.047411498,174.28931
114475000,0.11126067,47.611134,0.0019421992,-50.618961,68.490936,-113.7676,0.038827237,-126.69934
115470000,0.11657351,43.426815,0.0010535895,-55.969189,68.673553,-121.88829,0.063768357,112.01312
116465000,0.11812262,30.683969,0.0026972729,-176.98705,68.550079,-130.83051,0.054483283,167.33905
117460000,0.12300975,32.912746,0.0017759892,1.319239,68.824409,-138.35266,0.058951646,18.56341
118455000,0.12692852,25.959021,0.0027656006,7.9723849,69.067368,-146.74496,0.021686031,-18.685783
119450000,0.11910204,17.762686,0.0019028783,-139.28436,70.515526,-155.14532,0.036290463,68.252388
120445000,0.11443274,19.759668,0.0040570232,-169.78107,69.958374,-162.39145,0.048694123,51.613899
121440000,0.11963657,5.3483367,0.0022823249,130.9274,69.852676,-171.88576,0.10210355,-178.37991
122435000,0.13311617,-2.9814434,0.0048867124,-175.94043,70.867363,179.65501,0.098176457,-116.46738
123430000,0.12047104,-7.3419642,0.0004150141,-168.0444,70.467674,172.05969,0.1239313,130.80826
124425000,0.13089478,-13.656121,0.0041447128,-146.4847,71.09211,163.9894,0.029791422,-46.65596
125420000,0.12291022,-16.451555,0.0035734295,-123.94809,71.681549,156.21684,0.084464088,-118.15103
126415000,0.11892942,-18.643253,0.0048363712,-83.965469,71.856781,148.44447,0.033368789,162.29123
127410000,0.12894115,-27.891684,0.007032224,-123.56337,71.968933,140.01698,0.053619698,-126.96296
128405000,0.12237956,-35.167873,0.0045501697,98.417984,72.254807,132.32759,0.073259898,149.0883
129400000,0.13060728,-43.893394,0.005016204,-106.66975,72.289101,124.07236,0.034088966,166.70024
130395000,0.1200294,-47.5368,0.0017785999,25.448685,72.346642,116.59434,0.047874324,80.830917
131390000,0.12801482,-50.629589,0.0021172478,168.40971,73.022064,108.72375,0.050323162,170.87988
132385000,0.13329889,-57.929623,0.0030323614,17.289753,73.479477,100.61954,0.063364491,-24.548746
133380000,0.1309409,-60.40749,0.0040192083,84.331673,73.845642,92.645081,0.12691563,151.45398
134375000,0.14057936,-74.770699,0.0005494043,-59.67281,72.638687,84.467369,0.07966277,95.807816
135370000,0.13182348,-72.191269,0.002120726,78.685509,74.637436,77.309402,0.048588216,86.729294
136365000,0.12854458,-82.91217,0.0019602058,-27.598576,74.192261,69.642403,0.06388887,151.90536
137360000,0.12464274,-90.721802,0.0017757658,111.75456,74.533127,62.290932,0.052286532,72.02034
138355000,0.12799147,-93.279694,0.0028383632,36.567207,74.003609,54.084152,0.066694736,-125.75961
139350000,0.12833388,-94.02919,0.0042749862,-88.687019,75.146126,46.360268,0.013320116,-93.912613
140345000,0.13695979,-102.26241,0.0022707756,90.907173,74.450027,38.546307,0.13554674,133.17078
141340000,0.13457254,-107.30227,0.0028412174,-120.51624,75.127762,31.045347,0.12808226,36.410488
142335000,0.13145815,-116.09042,0.00078471005,135.65428,74.617195,23.648691,0.042559762,-101.07742
143330000,0.13236858,-124.231,0.0025927348,-0.53393072,75.384254,16.062159,0.074953526,19.949099
144325000,0.13384242,-130.27759,0.0028426794,133.0341,75.021385,8.7757778,0.053233624,16.119705
145320000,0.13955365,-134.37576,0.0029517671,3.0708725,75.369125,1.1621192,0.081809863,-59.807556
146315000,0.13891505,-139.51088,0.001959228,73.761612,75.642975,-6.5155368,0.097037882,45.967976
147310000,0.13767855,-143.00926,0.00076543842,-77.613678,75.406685,-14.390102,0.15287457,0.81764895
148305000,0.13299069,-152.28603,0.0014349797,64.284485,76.011345,-21.122602,0.029104544,-55.283352
149300000,0.13821678,-157.55896,0.00079094188,172.00917,75.481087,-28.81357,0.018362468,28.099283
150295000,0.14093328,-160.76074,0.0041429824,46.580532,75.841682,-36.597557,0.065390356,-112.52538
151290000,0.13672224,-161.09074,0.0024082083,34.941826,76.109032,-44.554516,0.020464392,43.80368
152285000,0.14240022,-174.38687,0.0041514966,167.03084,76.126907,-51.272442,0.13120055,44.007656
153280000,0.14243603,-176.13026,0.00070616981,49.750404,75.910728,-58.813934,0.043230813,7.5249324
154275000,0.13251844,173.96095,0.0020040949,-75.268921,77.152214,-66.5355,0.091878548,-23.168554
155270000,0.13605669,164.21764,0.0040875273,-128.64961,77.909332,-73.121223,0.085296027,163.02831
156265000,0.13934079,165.37814,0.0035796352,-103.42259,76.379646,-80.636459,0.014248394,-131.55751
157260000,0.14305811,156.04207,0.0037027628,71.962303,77.18486,-87.851418,0.084262401,-45.786827
158255000,0.14181197,149.63193,0.0028610253,-21.401743,77.101616,-95.339874,0.14521408,-93.177216
159250000,0.14653286,146.16563,0.0074554486,35.004745,76.734528,-102.34887,0.19836856,70.304932
160245000,0.14102526,140.99582,0.0024783595,115.55168,77.269943,-110.26662,0.076973863,136.83759
161240000,0.1374165,135.56029,0.0031763494,-43.71711,76.578453,-117.7445,0.041562576,52.388451
162235000,0.1382257,129.01057,0.0024342269,133.8636,76.667404,-124.74697,0.07177408,-38.96563
163230000,0.14892805,122.819,0.001173682,94.897758,77.60144,-131.3989,0.09038873,-46.830704
164225000,0.14462368,119.45427,0.0067046368,-151.53207,77.406975,-139.16055,0.066180855,137.13182
165220000,0.13292292,109.75139,0.0041388422,-12.884145,77.802528,-146.17342,0.056397717,154.12199
166215000,0.14329353,101.6361,0.003616502,153.99951,76.97937,-153.38965,0.10715365,168.15648
167210000,0.14160289,100.11663,0.0018751326,-146.08659,77.986565,-160.63429,0.090576388,-116.9037
168205000,0.13831243,95.468193,0.0033885965,-177.71815,77.493927,-168.09488,0.071096368,-60.786404
169200000,0.13202932,91.758453,0.0032488189,-41.714546,77.535774,-175.27344,0.059593964,-107.33846
170195000,0.14835754,83.691093,0.004126566,67.945503,77.659096,178.04489,0.035838511,-150.50729
171190000,0.14050376,74.253448,0.0034553101,74.169525,77.983452,170.2728,0.10664859,-152.53716
172185000,0.13808034,73.055496,0.0017832996,146.31129,77.75798,163.50374,0.047061156,-149.99564
173180000,0.1391761,72.565002,0.0036051697,-15.858866,77.465622,156.73143,0.091556057,115.3326
174175000,0.14442897,58.90313,0.0034190994,112.60067,78.455093,149.45915,0.048261449,-156.66888
175170000,0.14541493,52.058933,0.0012699667,103.33535,78.250763,142.02269,0.063247368,100.11769
176165000,0.14280899,51.426178,0.0009881882,48.347187,78.241661,135.64084,0.056625519,88.855339
177160000,0.13702984,43.231472,0.0029871673,43.534061,77.939308,127.69122,0.025904965,27.823141
178155000,0.14917023,42.778088,0.0015234447,-55.236591,78.37751,121.28169,0.064009607,27.257339
179150000,0.13734131,31.489161,0.0036067492,-89.466782,77.888245,113.65611,0.090840645,32.453632
180145000,0.1383533,27.144459,0.0026492786,20.883516,77.776466,107.02058,0.086399853,-116.48266
181140000,0.13102853,22.708599,0.0023219085,-113.01268,77.918266,99.984337,0.052193396,16.41242
182135000,0.14295907,12.546533,0.0035719248,-113.0775,78.471069,92.358574,0.036513805,160.51282
183130000,0.14498323,12.769477,0.001844708,-154.82159,79.138786,86.159439,0.081638448,151.71593
184125000,0.14738387,1.4950684,0.0021560369,152.3963,78.386215,78.309425,0.060355719,-172.5085
185120000,0.1514418,-2.4092841,0.002039802,-25.824877,78.923889,71.308876,0.12494177,-142.93808
186115000,0.14202775,-6.0684094,0.004600734,27.602373,78.956383,64.75589,0.08124093,156.98218
187110000,0.14165063,-14.494867,0.0014289557,175.30978,78.523018,57.48148,0.043531001,-143.55962
188105000,0.14245984,-18.617653,0.0016033049,-17.940371,78.307495,50.751163,0.066699348,81.443535
189100000,0.14101504,-21.250641,0.0026072897,55.195885,79.109756,43.917187,0.025986293,90.487122
190095000,0.13869573,-27.589043,0.0035907631,9.1751442,78.929626,36.718639,0.063088283,82.744698
191090000,0.14054385,-40.808224,0.0048220456,-82.770088,78.303566,29.734354,0.066946052,2.3337097
192085000,0.14830217,-42.75034,0.0028500978,-173.6387,78.593567,22.628525,0.06422437,62.029205
193080000,0.1414099,-46.227062,0.0025098498,-43.205112,78.646599,15.925355,0.055932827,64.540108
194075000,0.13790686,-52.641533,0.0016180644,-32.490025,79.022324,9.6649075,0.051582124,-164.54649
195070000,0.1457437,-50.919998,0.0030049931,75.168045,80.933319,2.1153185,0.14648804,92.219238
196065000,0.14816707,-62.493889,0.0052300212,-178.70647,78.901749,-4.7128382,0.078708023,32.903008
197060000,0.1369469,-69.608566,0.0041255658,-155.99028,79.325211,-11.701022,0.11055632,168.57153
198055000,0.14802334,-71.899582,0.0024645966,106.09402,79.369942,-18.988977,0.028008014,-152.51845
199050000,0.14034742,-84.64859,0.0019794025,60.264645,78.322556,-25.307789,0.07438571,87.425926
200045000,0.14693193,-85.873894,0.0010490691,5.6902475,79.117302,-32.752247,0.055852074,53.31921
201040000,0.14278848,-87.662994,0.0031314073,109.79851,79.834511,-39.469021,0.027535375,-143.3271
202035000,0.14931893,-96.226624,0.004496309,-29.075153,79.286842,-46.73811,0.066647604,171.47421
203030000,0.14339961,-103.66355,0.0054730368,-178.52808,79.253738,-53.019142,0.055398684,103.16819
204025000,0.14094767,-110.8576,0.004032488,173.34755,78.921661,-59.913548,0.043955509,86.077744
205020000,0.14582452,-115.41119,0.0034661323,96.949394,79.478996,-66.763252,0.050103985,-4.9711385
206015000,0.14427188,-120.04868,0.001478143,159.31355,79.469429,-73.975212,0.031374656,-4.1243801
207010000,0.14482565,-126.58952,0.0064372392,88.568459,79.240585,-80.548309,0.08059223,56.935326
208005000,0.13799259,-128.34923,0.0028317869,-142.43147,79.849152,-88.054474,0.064228594,1.4349571
209000000,0.14214106,-135.23433,0.0038070888,4.192956,78.793228,-94.654938,0.083602086,69.142326
