!CSV A.01.01
!Keysight Technologies,P5024A,MY58100101,A.13.90.09
!Date: Friday, January 24, 2020 13:32:46
!Source: Standard

BEGIN CH1_DATA
Freq(Hz),S11(REAL),S11(IMAG),S12(REAL),S12(IMAG),S21(REAL),S21(IMAG),S22(REAL),S22(IMAG)
10000000,-0.451994,-0.83767509,-0.0011263689,-0.0027899172,-0.0080512473,0.0054947822,-0.018919673,-0.00062306988
10995000,-0.61044973,-0.71893919,-0.00061782595,-0.0011017217,0.0079023605,0.00032495763,-0.014719412,-0.0040477756
11990000,-0.73168826,-0.57112199,-0.0033100608,-0.0038342506,0.019500256,-0.016486298,-0.0093114916,-0.002258095
12985000,-0.82779962,-0.4069483,-0.0010184682,0.00024080156,0.0091667483,-0.0070089153,0.0048333206,0.012987405
13980000,-0.87572634,-0.22001863,0.0019708893,1.4628424e-005,-0.023953423,-0.002470602,-0.0077929641,0.0089037539
14975000,-0.88727188,-0.036021359,-0.0025695048,0.00082849769,0.012029223,-0.014733051,0.011415089,0.0021178843
15970000,-0.8650282,0.13686293,0.00075518701,0.00029707604,-0.0098670451,0.0027829763,0.0082196938,-0.0017544156
16965000,-0.80553961,0.30547509,0.00078806019,0.0001671263,-0.027300542,-0.0099201612,0.016734179,0.0055355229
17960000,-0.71709102,0.44317529,0.001011572,-0.0019466302,0.012398936,6.0003626e-005,0.014753247,-0.0064852121
18955000,-0.5950734,0.57609707,0.002306655,-0.0020804345,-0.023279089,-0.024487393,0.011227384,-0.013993512
19950000,-0.46921024,0.67890275,0.00097857264,0.00011814228,-0.017031863,-0.0084848776,0.016038371,-0.013573668
20945000,-0.31961137,0.74449056,-0.0012688662,0.0019355593,0.0086834617,-0.024677327,0.013366896,-0.0058819121
21940000,-0.16753829,0.77954817,0.0012028303,0.00077859859,-0.021760641,-0.038969964,0.0075466172,-0.0026738397
22935000,-0.0058027427,0.78225338,-0.0034398052,0.0011540925,-0.0040099728,-0.019241512,-0.0093633039,-0.012957662
23930000,0.15143532,0.76945347,-0.00082458288,-0.002109617,-0.028681193,0.0053493609,-0.0070682005,-0.016020542
24925000,0.30339298,0.70304358,-0.00014680461,0.0019453021,-0.045987248,-0.01133759,-0.019491632,-0.015488476
25920000,0.42309067,0.63195693,0.0013425582,0.0016942399,-0.049852133,-0.0037513808,-0.021181356,-0.0081137754
26915000,0.54454941,0.52192807,-0.00062679825,0.0004639721,-0.00070404413,0.059023928,-0.021774039,0.001915443
27910000,0.62961417,0.40584302,0.0027435091,-0.0011579575,-0.041660804,0.012610093,-0.015141129,-0.0026414895
28905000,0.6800831,0.26466721,-0.0026547001,-0.0022794351,-0.093694448,0.0070605609,-0.010876804,0.012698974
29900000,0.72573036,0.10872529,0.0017252211,-0.0030698462,-0.039654206,0.012217456,-0.0094704246,-0.0052844891
30895000,0.73261762,-0.029127767,-0.0015733525,0.00041941807,-0.17790078,-0.095336154,-0.02019077,-0.0070806555
31890000,0.67046446,-0.20181239,-0.001174093,-0.0015375586,-0.032497734,0.24012294,-0.032096464,-0.0021873757
32885000,0.61457056,-0.29802075,0.0022122625,0.00015481496,-0.086767547,0.10446649,0.023203775,-0.025364
33880000,0.54185766,-0.43498141,0.0013507216,0.002130453,0.12501226,0.22630654,-0.0037926256,-0.010412238
34875000,0.43424082,-0.53672326,0.006190774,-0.00053867139,0.074487939,0.35388282,-0.023211474,-0.083861291
35870000,0.28861043,-0.5874204,-0.00094420341,0.0026343816,-0.060045671,0.32999709,-0.01029754,-0.023194248
36865000,0.16854098,-0.64046562,-0.00029661841,-0.0016898463,0.2501834,0.48331633,-0.027980953,-0.028643539
37860000,0.016365023,-0.65372658,-5.2987132e-005,-0.001035589,0.48085022,0.54797179,0.013204703,-0.02885288
38855000,-0.10566016,-0.60992879,-0.001314862,0.0035915785,0.53274369,0.431885,-0.016639469,-0.033869185
39850000,-0.24196839,-0.54968297,0.002362746,-0.00012875661,0.70638984,0.3668071,0.0058223787,-0.036599439
40845000,-0.33450297,-0.46176749,0.00086343958,-0.0020450349,0.89141142,0.17113279,-0.0098764068,-0.040358108
41840000,-0.41155002,-0.36325583,6.5491469e-005,0.0017348916,1.2559241,-0.15618132,-0.031334747,0.0047945427
42835000,-0.44269878,-0.25944853,-0.0059103756,0.0048188847,1.5922692,-0.68415964,-0.0042224093,0.026373858
43830000,-0.46863127,-0.15597771,-0.00097039033,-0.00053815887,1.550166,-1.3375767,0.022094339,-0.00029465425
44825000,-0.4659535,-0.057340603,-0.0047384403,0.0011448304,1.2229396,-1.6693661,0.0074450434,-0.0042461571
45820000,-0.43893823,0.030721998,0.0030227702,0.005273636,1.2002558,-2.3071151,-0.012949419,-0.0122619
46815000,-0.39754564,0.098904453,-0.0004276312,-0.0013007283,0.52302539,-3.044709,-0.019587032,-0.014298243
47810000,-0.35344633,0.16338328,0.00039508194,0.00084414642,-0.1048606,-3.3127561,0.015281054,0.040255208
48805000,-0.30026299,0.21316659,0.0050325068,-0.0018381517,-1.2989109,-3.583833,-0.023746222,0.00017730445
49800000,-0.2388985,0.24188462,-0.0011471802,0.0016443291,-2.184679,-3.6425946,-0.044201549,0.028890524
50795000,-0.18193664,0.2637822,-0.00098173798,-0.0054528601,-3.6605458,-3.1520422,-0.035051908,0.026879499
51790000,-0.12402556,0.27866563,-0.0019994806,0.0017142905,-5.1186752,-2.5256894,-0.040918268,0.0098639224
52785000,-0.074825019,0.28061593,-0.0011148183,-0.0018845974,-6.0708785,-1.4270432,-0.07168559,-0.035374444
53780000,-0.027087802,0.27025852,0.0045083943,0.001095916,-7.1769776,-0.13988769,-0.022893516,0.032226738
54775000,0.023927139,0.25917709,0.0010627188,-0.0025182606,-7.8873839,1.7868273,0.0013016388,-0.031250749
55770000,0.040362682,0.24116574,-0.0016166776,-0.0010815589,-7.7512026,3.8040318,0.014311591,-0.0048407069
56765000,0.08239153,0.20591514,0.00073353248,-0.0011988361,-7.1368556,6.0479031,-0.027527506,0.046167135
57760000,0.097488478,0.1918612,0.00027539744,0.0010357278,-6.8633356,8.2145281,-0.025632991,0.02226482
58755000,0.12414374,0.16566275,0.0013413901,0.0014751183,-4.9830041,10.442873,-0.0064833793,0.013032247
59750000,0.14078975,0.15274452,-0.0013162628,0.0026022468,-3.0976541,12.412105,0.02100656,-0.012564029
60745000,0.14671579,0.11943737,0.0011527761,-0.00013401378,-0.1683301,13.496127,0.03568266,-0.005342715
61740000,0.17303863,0.10877424,-0.0011303368,-0.0029401928,2.8283095,15.007051,-0.030583983,-0.0031240878
62735000,0.16298442,0.078374587,-0.001501581,-0.00025614977,6.268693,15.140685,0.005252494,0.02658022
63730000,0.16582458,0.054439705,0.0013903031,-0.0018410332,10.381187,14.457417,0.013341862,-0.001094085
64725000,0.1722617,0.034249585,-0.00068516348,0.0013552973,14.591496,13.068687,-0.017668275,-0.014822398
65720000,0.1639954,0.0043455432,-0.0012035207,-0.0015974174,17.801281,9.8746128,-0.041773077,-0.0054687359
66715000,0.1544354,-0.014295839,-0.0011528066,0.00099101965,20.869131,6.6275744,0.014620862,-0.020385055
67710000,0.14847302,-0.038054727,-0.0016589968,0.0020333936,23.625504,1.9648408,-0.049840428,-0.03745402
68705000,0.15231322,-0.057406861,-0.0028742447,0.0029418771,25.036564,-3.2023857,0.044346493,0.025214881
69700000,0.13594256,-0.078800797,-0.0034836305,0.0012912656,25.429678,-8.9512854,-0.0077391425,-0.065196536
70695000,0.11657821,-0.086518712,-0.0017158518,-0.001021399,24.467411,-14.7114,-0.0095168231,-0.039095566
71690000,0.1133322,-0.099247828,0.0020046262,-0.0010513207,21.932163,-20.598139,0.0045529306,-0.0030387179
72685000,0.094319463,-0.10309378,-4.3905231e-005,0.0028282281,18.302773,-26.384092,-0.00098787399,-0.027068919
73680000,0.079360865,-0.11108474,-0.0021135483,0.00097350712,13.167333,-30.720526,0.020189943,-0.021524537
74675000,0.065474182,-0.12634858,-0.0025919406,0.00057147705,6.6668143,-34.685822,0.052527528,-0.05329245
75670000,0.052167531,-0.13331752,0.00027542989,-0.00066531333,-0.35527584,-36.963219,-0.011227381,-0.053424578
76665000,0.031783339,-0.13294055,-2.7310807e-005,-0.00032501676,-7.9676661,-38.054287,0.046080153,-0.042038545
77660000,0.01737003,-0.14101839,0.00099743076,0.0013357693,-16.224716,-36.603909,0.041659016,0.03392515
78655000,-0.00069798791,-0.13155018,-0.0037764162,-0.00042564934,-23.802725,-34.13607,0.079404339,0.054368269
79650000,-0.0031938881,-0.13857642,0.0029094017,-0.0014187616,-32.030197,-30.008194,0.058427006,-0.065611698
80645000,-0.028865535,-0.12054946,0.0032608621,-0.002919913,-37.336201,-24.224319,-0.030671382,0.051441699
81640000,-0.044000067,-0.12119661,-0.0021860031,-0.0047213803,-42.791294,-16.908934,-0.012380394,0.028678924
82635000,-0.050250124,-0.12458708,0.0012304626,-0.0014077935,-46.698322,-8.1196842,0.055360951,0.029344777
83630000,-0.054768231,-0.11482104,-0.0016826302,0.0002831181,-49.384899,0.1753961,0.084172167,-0.028064648
84625000,-0.077065185,-0.10737182,0.0052292459,-0.00087148324,-48.678776,9.8648624,-0.008947554,0.046995409
85620000,-0.085064806,-0.10166206,-0.0014035415,-0.00011642469,-47.04681,19.158432,-0.011161491,0.023870211
86615000,-0.089587852,-0.081097923,0.00036060889,-0.00083910505,-44.318623,28.103067,-0.11556238,-0.060239673
87610000,-0.10205052,-0.071581021,-0.0030331237,0.00155767,-38.856972,36.286724,-0.034075134,-0.028822197
88605000,-0.1066401,-0.070967689,7.4972493e-005,0.0081406999,-31.905396,43.494869,-0.035356823,-0.032050736
89600000,-0.12071278,-0.053454604,-0.0012606479,-0.0026105158,-24.253798,48.778622,-0.0049092872,0.0036304116
90595000,-0.11759073,-0.041409828,0.0029183642,0.0032050677,-15.167734,53.381847,-0.070040576,0.0082044434
91590000,-0.12299587,-0.026763398,0.0011280881,0.0025330917,-6.0111346,56.597126,-0.021028256,0.055576589
92585000,-0.12619781,-0.0082496796,0.0046397159,0.0033025884,3.8524806,57.110542,-0.0035281093,0.0086609814
93580000,-0.11911277,0.0090282215,-0.0012350075,-4.3348177e-006,13.790046,56.37508,-0.045782786,-0.049865361
94575000,-0.12470088,0.019626567,-0.0011916657,0.00016423319,23.064564,54.037636,-0.0037868456,-0.051445931
95570000,-0.13041867,0.025476063,0.0022460255,0.00011842624,31.782476,48.844055,0.051050853,0.034068342
96565000,-0.10841661,0.051010102,-0.0033768397,-0.00054547255,41.029373,44.622982,-0.0039324472,0.10360339
97560000,-0.098724164,0.055345107,-0.00071738282,-0.0010552675,48.641022,37.148773,-0.01363112,0.0081483815
98555000,-0.10213351,0.06270723,-0.0020183118,0.0034991757,54.354958,28.953125,-0.026430963,-0.018052435
99550000,-0.099843279,0.069051348,0.00027085803,0.0034058013,58.139118,19.896545,-0.01903503,0.0054823132
100545000,-0.088673092,0.095551975,-0.00083327352,0.0044449768,61.50613,11.537597,-0.055295061,-0.027386475
101540000,-0.075219512,0.090439096,0.00053040514,0.0011593227,63.049,0.44170457,-0.016887084,0.0071197595
102535000,-0.065888003,0.10757127,0.00092906132,-0.0030803138,62.788555,-8.9761648,-0.096805707,0.00044616646
103530000,-0.050497632,0.10758934,-0.00036527539,-0.0029470304,61.349606,-19.759001,-0.051292479,0.010270841
104525000,-0.033381321,0.10845584,5.8696118e-005,-0.00084145035,57.305305,-28.8776,0.0055193529,0.015805412
105520000,-0.039064586,0.11019228,-0.00036049509,0.00097813352,52.098408,-37.318378,-0.066264287,0.066844046
106515000,-0.015988862,0.11580087,0.00035200341,0.0033057265,46.632618,-45.844849,-0.052365899,0.016891671
107510000,-0.0053649186,0.12240789,0.0011578751,0.0037426911,39.598148,-52.648479,0.060759991,0.0054925205
108505000,0.0075492919,0.11878189,0.0062583969,-0.0046572844,30.925123,-58.36335,-0.047513191,-0.026816448
109500000,0.02676326,0.11693259,-0.0040199584,-0.0017942369,22.285896,-62.934608,-0.066061094,0.035656031
110495000,0.029965172,0.11278441,-0.00027100762,0.0022804395,12.211414,-65.582718,-0.0270715,0.043122157
111490000,0.039418645,0.11301208,-0.0014415593,0.0039764894,2.8682435,-66.758926,-0.066193938,-0.037852906
112485000,0.061559916,0.10215175,0.0011366525,-0.0029752688,-7.6638551,-66.800514,-0.095709436,0.091087379
113480000,0.070944615,0.10008553,0.00088675023,0.00068675092,-17.675501,-65.642403,0.042987701,-0.031164253
114475000,0.073613785,0.090502046,-0.00042602775,-0.0019184513,-26.819386,-62.326172,0.024597937,-0.03300881
115470000,0.088888578,0.087242022,0.00031369226,0.00097473775,-35.469482,-58.084332,0.017707175,0.015525228
116465000,0.09674266,0.075031795,-0.00070013024,0.00019887659,-44.495731,-52.242664,0.077178985,-0.01048601
117460000,0.10490461,0.068534873,0.0079410123,0.0029359122,-51.578857,-46.203945,0.013807085,0.035813343
118455000,0.10990863,0.052260228,0.001079283,-0.0024935126,-58.059231,-37.737392,-0.029081643,-0.068566933
119450000,0.10153983,0.043193582,0.0004716726,0.004721541,-63.166992,-29.238058,-0.058268387,0.052194953
120445000,0.12408601,0.036003597,-0.003671119,-0.0022328093,-66.839355,-20.929358,-0.076648228,0.027340069
121440000,0.11883775,0.0070694606,-0.00052655581,-0.00083691394,-69.220329,-9.8382225,-0.018731344,0.038368236
122435000,0.11616596,0.0047259466,0.0014580194,-0.0057617645,-70.539085,-0.59960008,0.043818254,0.0041052732
123430000,0.12410378,-0.010366204,-0.0031508512,-0.00032025715,-70.043938,9.4099464,-0.018835649,0.074074201
124425000,0.12514322,-0.024883684,-0.00075934653,0.001015289,-68.776932,19.348993,-0.042340752,0.093646042
125420000,0.11810988,-0.042527266,-0.0027501341,0.0036791773,-64.734512,29.018253,-0.012653589,0.03146711
126415000,0.11987706,-0.05485611,-0.0023790768,0.00063860643,-61.074146,38.189213,-0.025764808,-0.023384197
127410000,0.11156125,-0.056666203,-0.0016034379,0.0010859797,-55.916481,46.340427,-0.038920652,0.0062810183
128405000,0.10427018,-0.066099197,-0.0010804932,-0.0034035945,-48.928398,53.51783,0.050946731,-0.0025344335
129400000,0.09516938,-0.088619351,-0.00038061812,-0.0010054394,-40.877213,60.289936,0.0087612988,0.070052765
130395000,0.086889125,-0.099276245,-0.00054933794,0.0016636606,-32.200851,65.258476,-0.033629425,0.022856031
131390000,0.079810373,-0.1022118,0.00032608202,-0.0027704702,-23.485954,69.299438,0.053638577,-0.026018087
132385000,0.066174239,-0.10129416,-0.0015066189,-0.0013477652,-14.303967,72.002296,-0.079741038,-0.047987647
133380000,0.0541359,-0.11657374,0.0053445632,-0.00062146108,-3.7298963,73.202232,-0.092323102,0.059095044
134375000,0.050107051,-0.12181065,0.0015924944,0.0050406805,6.5299029,73.637558,-0.034309357,-0.012587622
135370000,0.047062408,-0.11877944,-0.0019665703,-0.00032332839,16.481131,73.187843,-0.02899815,0.0020757825
136365000,0.017368089,-0.12807339,-0.0024245677,0.0053043012,25.92687,68.744202,-0.0090102069,0.11873348
137360000,0.011058191,-0.12516043,-0.0032114275,-0.0024875889,34.530865,65.887825,-0.12215596,-0.054157384
138355000,-0.001746589,-0.13382584,-0.0026420676,-0.00021284509,43.430386,60.100319,-0.025064766,0.0052620783
139350000,-0.012234042,-0.12715016,0.00011799801,-0.0022581059,51.737953,54.454712,-0.0057241186,-0.072826616
140345000,-0.029079214,-0.12675215,-0.00086568011,0.0010415384,58.323193,47.010872,-0.046986997,-0.037945908
141340000,-0.051565059,-0.12595084,0.0044711195,-0.00040972303,64.368286,38.002728,-0.0031686933,-0.0027052499
142335000,-0.05703488,-0.11356782,0.0020179662,-0.0016203154,68.444519,30.44232,0.1563361,0.022682872
143330000,-0.057934262,-0.1227574,0.0020139609,-0.0036256649,73.151627,20.050085,-0.062674701,0.028808756
144325000,-0.07797835,-0.10126986,0.0041842358,-0.0034389929,75.213921,11.157527,0.022152811,0.050560325
145320000,-0.093297578,-0.096279763,0.0032856942,-0.0034387712,75.430908,1.3733116,0.072898261,-0.018822854
146315000,-0.09928789,-0.084232852,0.00028281895,-0.00059532572,75.809418,-8.7896338,-0.011595422,-0.03403597
147310000,-0.10264262,-0.075583026,-0.0026127633,-0.0023230766,73.993721,-18.598644,-0.052894462,0.0037942261
148305000,-0.12135568,-0.066463903,0.0016228702,6.4079206e-005,70.361649,-28.120127,0.022759218,-0.074980885
149300000,-0.12731032,-0.052739032,-0.0011143771,8.7500455e-005,66.726059,-36.951614,0.039741457,0.035092536
150295000,-0.12035143,-0.048998579,-0.0018367158,-0.0018551018,60.832031,-46.11047,0.03435462,0.029104723
151290000,-0.14113222,-0.031234926,0.0020766773,-0.00063826377,54.33102,-52.862057,0.043402791,-0.011388923
152285000,-0.13565801,-0.015223727,-0.0018290941,-0.0016213283,47.524796,-59.698086,-0.032762367,-0.079620473
153280000,-0.13633655,-0.011609477,-0.0018772212,0.0018244808,39.070507,-65.840752,0.10088348,-0.032819185
154275000,-0.13771889,0.016165078,0.00086596841,0.0050111739,30.889521,-70.264519,-0.0041695028,0.013151917
155270000,-0.13733293,0.017854312,-0.00016924441,0.001694673,21.034046,-73.594467,0.11341739,-0.017414423
156265000,-0.13385761,0.031849049,-0.0010233672,-0.0033455614,12.172642,-76.263237,-0.049525063,0.0089745764
157260000,-0.12842971,0.048043407,0.0016002785,-0.0038836275,2.3668959,-76.961662,0.051740725,-0.029035283
158255000,-0.13047075,0.063258782,0.0015001051,-0.00047585761,-6.5849938,-76.255676,0.13635729,0.017600883
159250000,-0.11519732,0.07132908,-0.0032718189,0.0026737701,-17.171783,-74.736465,0.056884583,0.002051577
160245000,-0.12012523,0.088272654,0.0055458392,-7.1202339e-005,-25.842371,-71.244278,-0.05362916,0.0083486428
161240000,-0.089786373,0.10173947,0.0040358077,0.0011127337,-35.481674,-69.019951,-0.038406968,0.011321137
162235000,-0.086500175,0.10438848,0.0011109224,0.0010176589,-44.054333,-63.486427,-0.037617959,-0.028388152
163230000,-0.084647976,0.11928439,-0.00037273541,0.0025839999,-51.15044,-58.071083,0.095448449,0.0077708797
164225000,-0.059278943,0.13406329,0.0019137545,0.0032086323,-58.289185,-51.449005,-0.10008228,-0.019186191
165220000,-0.048649374,0.12249302,0.0024328288,0.0022883837,-65.079453,-43.075222,0.068223074,-0.072990976
166215000,-0.042497434,0.1330245,-0.00073857437,-0.0021385064,-69.437393,-34.734547,-0.025238244,-0.035974428
167210000,-0.027388303,0.14625065,-0.0073466906,0.00040772752,-73.257286,-25.664297,0.04887579,-0.021576691
168205000,-0.0084062796,0.13301134,0.0019277841,-0.0027931854,-76.102776,-15.577991,-0.024263889,0.038328435
169200000,-0.0016740306,0.1423557,0.0023275488,5.7243884e-005,-77.031593,-6.546308,-0.082640752,0.045938626
170195000,0.014908734,0.140755,0.0046023894,-0.0011999293,-77.854797,2.3532336,0.014352987,-0.07645344
171190000,0.027483815,0.13226588,0.0021180112,-0.0002267949,-76.303566,12.127265,-0.010297219,-0.081444599
172185000,0.03921194,0.13673478,-0.002718613,0.0046861395,-75.184746,21.889698,-0.033818912,-0.067413874
173180000,0.062893234,0.12606473,-0.0012380295,-0.0013528072,-71.425034,31.4224,-0.018900147,-0.027091986
174175000,0.069666341,0.11806023,-0.0024929063,-3.2494776e-005,-66.994942,39.835674,-0.090652585,-0.010563076
175170000,0.0842072,0.11819583,-0.0019268173,0.0026913404,-62.199562,47.554188,-0.0016018332,-0.022540892
176165000,0.090600178,0.11404649,-0.0029748855,-0.0013213102,-55.731068,55.073963,-0.074870139,-0.034497857
177160000,0.099447645,0.092777364,0.006524791,-0.0028255987,-47.723507,61.511402,0.010719302,-0.034656357
178155000,0.11147716,0.087360747,0.0011796113,-0.0023454367,-40.402012,67.558617,-0.010402243,0.09871687
179150000,0.11031846,0.069700025,-0.0013194868,-0.0005569362,-31.34606,70.828461,-0.0056202025,0.037503984
180145000,0.13341792,0.052295562,-0.00069495983,-0.0031059601,-22.035067,75.214211,0.061164081,0.013806743
181140000,0.12450787,0.051867444,0.00065503595,0.00091344345,-13.443519,76.760132,-0.10763051,-0.0020419674
182135000,0.13714062,0.033679362,-0.00072678732,-0.0002232018,-3.7186115,78.002319,0.072589897,-0.046262488
183130000,0.14039858,0.025552407,-0.0020351247,-0.0047570392,5.3285842,78.52581,0.063770004,-0.041043188
184125000,0.13808186,0.0056942082,-0.0030165855,-0.00017460484,15.260063,76.056168,0.052835573,-0.015836766
185120000,0.141324,-0.0019939176,0.0013921949,-0.00043970766,24.602039,75.110802,0.074270181,0.046373021
186115000,0.13172103,-0.030606544,-0.0010415147,0.00097385049,33.38147,70.515358,-0.1198863,0.057498284
187110000,0.1426724,-0.036236133,0.0010851177,0.0012782689,42.251698,66.264084,-0.008801382,0.12578619
188105000,0.13076453,-0.044894341,0.0036185216,0.0017151826,49.833057,60.657318,-0.038375217,0.070417635
189100000,0.13321416,-0.065285265,0.00026246329,-0.00048255461,57.634838,54.121399,0.00061782153,0.0589776
