!CSV A.01.01
!Keysight Technologies,P5024A,MY58100101,A.13.90.09
!Date: Friday, January 24, 2020 14:26:17
!Source: Standard

BEGIN CH1_DATA
Freq(Hz),S11(DB),S11(DEG),S12(DB),S12(DEG),S21(DB),S21(DEG),S22(DB),S22(DEG)
9000,0.0026825108,-0.011041534,-53.938175,-54.806164,-46.35178,-81.03257,0.027826093,0.1527213
1008995.5,-0.024375981,-11.738458,-59.873951,-96.22438,-57.061893,-78.470787,-0.031153666,-16.924238
2008991,-0.058274917,-23.040443,-62.520668,43.227554,-52.298897,97.763374,-0.11750041,-33.947849
3008986.5,-0.1127992,-35.14587,-67.231705,167.39828,-56.45578,-136.48233,-0.26759559,-50.937622
4008982,-0.093388088,-46.889397,-52.149372,-116.83529,-53.878929,-103.72747,-0.57814837,-67.422256
5008977.5,-0.10571793,-58.924343,-48.563915,171.37773,-50.606342,-140.7863,-0.78905225,-83.483894
6008973,-0.11649121,-70.459274,-50.15815,-166.9711,-51.664402,35.358803,-1.0679692,-98.64566
7008968.5,-0.19380201,-82.216644,-62.757679,177.35991,-53.637604,-88.837318,-1.4411693,-113.26606
8008964,-0.23217215,-94.465317,-54.147293,-135.9241,-55.659527,65.299294,-1.765691,-127.72304
9008959.5,-0.30222955,-106.0528,-53.200787,-14.134769,-63.691181,109.99085,-2.0676386,-141.59705
10008955,-0.41660303,-117.90777,-52.302303,4.4560027,-60.471088,-18.235271,-2.3349714,-154.96526
11008950.5,-0.4855988,-129.53264,-49.889336,38.53281,-50.775711,-46.263184,-2.6550515,-168.2462
12008946,-0.60240012,-142.15797,-65.830276,-122.71785,-58.197968,-43.878704,-2.9072497,179.5735
13008941.5,-0.73392648,-154.09479,-65.328278,153.22516,-52.65509,-146.45067,-3.1762428,167.19826
14008937,-0.88319522,-166.09961,-62.619419,-134.05568,-64.063477,-35.681187,-3.4021339,155.07315
15008932.5,-1.0306516,-177.97325,-55.08308,-99.162231,-59.393894,-158.82994,-3.5666711,143.62482
16008928,-1.17171,170.43263,-61.098019,127.9898,-58.345402,86.935623,-3.8107059,131.93187
17008923.5,-1.3210998,158.6322,-54.864124,-59.756084,-53.929985,-143.44861,-4.0242624,121.03086
18008919,-1.4699649,146.84482,-61.490288,123.24993,-48.372318,152.88506,-4.0841131,109.37383
19008914.5,-1.6124655,135.48793,-63.547668,21.516829,-47.472012,129.95432,-4.2023149,99.604919
20008910,-1.7225481,123.62769,-59.523479,-8.7157545,-57.372997,164.94403,-4.3321538,87.805733
21008905.5,-1.8393948,112.34178,-58.284248,-43.446938,-54.405949,-35.422871,-4.4731259,77.725769
22008901,-1.9323714,101.4791,-52.963982,114.27794,-62.22924,-139.93765,-4.681922,67.623062
23008896.5,-2.1096766,88.920517,-51.385345,169.17261,-53.07798,-30.0506,-4.7322631,56.574593
24008892,-2.1226029,78.03273,-52.853058,-48.543152,-56.247761,163.61327,-4.6993198,47.545998
25008887.5,-2.1956367,66.261421,-58.655758,-167.56775,-56.185188,28.316452,-4.7842784,36.653263
26008883,-2.3671358,54.472702,-51.188244,2.5361426,-55.468014,94.373314,-4.8058982,26.631874
27008878.5,-2.3887913,42.448792,-63.731613,-110.62582,-59.012283,92.428795,-4.9101768,17.610415
28008874,-2.3632431,31.152185,-48.859798,0.68343705,-54.160442,-124.85575,-4.9737105,6.9198828
29008869.5,-2.5977085,19.535999,-51.994946,-122.42866,-56.292393,-66.716217,-4.9897923,-1.117583
30008865,-2.7808354,8.097023,-53.990932,-117.42983,-49.639236,-173.17212,-4.9995437,-12.30391
31008860.5,-2.7613618,-3.6152546,-51.394497,42.908855,-23.581734,72.507401,-5.7750001,-23.094688
32008856,-2.9344845,-16.107738,-54.061771,55.194508,-27.65917,-172.22861,-4.5242462,-28.784197
33008851.5,-3.0586486,-27.756176,-60.225552,118.80527,-30.831116,-160.81442,-5.375567,-39.681992
34008847,-3.0845177,-39.286289,-49.369164,-97.662079,-24.571062,176.56145,-5.0575376,-47.442207
35008842.5,-3.1882181,-51.80275,-48.641525,93.282875,-36.386295,-88.381859,-3.9120033,-60.46117
36008838,-3.2508562,-64.73938,-51.15255,153.87766,-26.479549,25.708046,-4.1165805,-64.134308
37008833.5,-3.5949826,-76.807556,-57.300961,109.25499,-22.174458,-167.31178,-5.6061611,-81.733284
38008829,-3.788347,-90.007301,-56.065765,-92.887634,-26.094303,30.91403,-4.1541862,-82.553589
39008824.5,-4.1839862,-102.79772,-51.679115,31.872911,-21.499981,-53.904114,-6.0149918,-93.059174
40008820,-4.3958654,-115.31664,-50.337517,46.910885,-25.475641,-178.00682,-4.6135397,-101.3961
41008815.5,-4.8811512,-127.83543,-46.539482,156.83714,-30.066292,61.501926,-4.2660317,-114.98859
42008811,-5.3785615,-139.64716,-58.280903,-52.824924,-18.969669,-88.857391,-4.7268744,-121.25632
43008806.5,-5.7713323,-151.89703,-54.672112,128.10341,-28.185675,51.373005,-4.188767,-133.20236
44008802,-6.233057,-163.56779,-52.680416,-22.567339,-39.293655,-11.272434,-4.8734179,-138.12563
45008797.5,-6.7637997,-175.1125,-48.284218,34.565933,-24.12483,179.64964,-4.1954813,-145.27795
46008793,-7.2912412,173.49011,-62.786594,-152.81888,-34.342567,60.835457,-4.3059726,-150.68555
47008788.5,-7.9445138,162.5336,-46.833714,75.383293,-20.479767,55.721367,-5.9048595,-166.35745
48008784,-8.5006056,151.52744,-62.493694,-177.08824,-31.01384,-4.6162276,-4.7809935,176.43018
49008779.5,-8.9677372,140.84065,-49.585903,132.50969,-28.067673,173.79167,-5.1276631,177.46295
50008775,-9.451848,130.89011,-51.111618,-79.700233,-33.640034,144.2086,-6.3474197,178.75298
51008770.5,-9.9657726,121.63208,-53.066162,-18.244293,-25.0389,-13.580055,-3.9366906,167.53502
52008766,-10.409816,112.10583,-70.719597,-132.83345,-22.85211,26.137489,-5.3152642,154.90567
53008761.5,-10.900146,103.5711,-54.015938,105.21365,-28.719418,86.72583,-4.6243091,139.90271
54008757,-11.610732,94.252342,-49.529911,-99.98307,-26.031977,67.383652,-5.2440524,134.82607
55008752.5,-11.781328,85.477562,-54.534184,161.6353,-37.974289,-151.84483,-5.5803075,136.30838
56008748,-12.025117,75.260155,-69.854156,-82.17836,-17.762344,-140.02821,-6.7832408,122.38837
57008743.5,-12.583101,66.781357,-81.417274,-40.427357,-20.734003,82.841805,-5.8172584,113.12466
58008739,-12.981375,60.901199,-50.689007,139.58121,-21.476149,90.288353,-5.2657585,105.61627
59008734.5,-13.325148,51.39666,-56.565201,100.69504,-33.991596,72.220078,-5.3958025,97.233887
60008730,-13.50457,42.344872,-49.320286,15.369099,-25.691462,27.747478,-6.0334888,96.851303
61008725.5,-14.025075,34.998295,-48.143505,-29.488382,-26.983248,179.55264,-6.0411329,88.085167
62008721,-14.483746,26.434252,-47.729065,-126.83003,-26.927761,-172.13911,-5.6595368,74.553299
63008716.5,-14.668465,21.447659,-53.127544,-173.82556,-28.817739,-97.887024,-6.9890156,65.770157
64008712,-14.71565,12.359454,-51.217609,9.8395338,-22.542919,90.194595,-5.9302282,59.865578
65008707.5,-15.246109,6.5312667,-48.541306,43.978985,-24.959791,-127.46763,-7.4082093,50.746201
66008703,-15.622066,-0.15636687,-51.944286,-59.609261,-25.976746,9.026618,-5.9612021,38.97966
67008698.5,-15.5135,-6.9336472,-80.129929,43.32674,-35.831104,-99.455841,-5.8288579,31.300463
68008694,-15.719811,-13.899375,-56.682117,97.653549,-16.325184,143.34215,-6.8242669,28.244213
69008689.5,-16.258272,-20.207985,-52.742218,100.30672,-20.657177,-171.36824,-7.4057775,12.798634
70008685,-16.238512,-31.524817,-51.317688,-84.392677,-25.803637,-104.70976,-8.1573877,5.0437183
71008680.5,-16.435183,-36.012028,-54.252476,146.95717,-20.916639,15.512562,-11.153838,-6.4108214
72008676,-16.353008,-40.66851,-51.699741,38.367477,-22.915119,44.36087,-6.4849277,-13.832984
73008671.5,-16.302475,-47.741295,-54.561584,38.784405,-25.581823,-175.22673,-8.6438313,-12.003468
74008667,-16.865532,-57.104988,-50.705193,163.79335,-17.243593,-176.21191,-7.0596027,-38.103058
75008662.5,-17.10655,-61.910408,-50.761253,60.034298,-18.988686,-142.9158,-9.0873127,-43.428131
76008658,-16.805861,-70.908836,-54.87048,101.39873,-32.763618,-77.005135,-7.1449871,-43.165886
77008653.5,-16.66543,-76.723183,-60.718987,-62.264847,-22.902267,-90.045937,-11.224693,-17.743431
78008649,-16.763704,-82.372223,-59.416531,-34.116974,-18.536797,82.931175,-8.9932795,-38.782001
79008644.5,-17.327267,-85.555016,-54.116848,143.18382,-28.702379,174.7048,-8.567482,-58.948597
80008640,-17.694199,-93.698685,-48.696751,104.73039,-32.729065,-23.971334,-12.567787,-87.301788
81008635.5,-17.870537,-99.546547,-66.190956,-83.307617,-19.565231,94.067825,-7.658834,-90.069092
82008631,-17.56447,-107.47904,-55.154747,-58.362415,-22.197783,15.897713,-13.928452,-103.08367
83008626.5,-18.254614,-114.81258,-64.756699,17.564177,-23.170418,-59.301834,-9.3791389,-89.215744
84008622,-17.729292,-119.80287,-50.901859,-145.42233,-16.446194,145.56531,-11.703082,-96.942017
85008617.5,-17.673811,-127.01736,-62.335979,-41.765038,-20.854696,177.18326,-12.215343,-105.03844
86008613,-18.326794,-132.15288,-58.969707,17.688204,-30.547199,-67.132912,-9.6267929,-113.26869
87008608.5,-18.225481,-137.98059,-51.933945,-45.270855,-14.984931,-89.065689,-13.802105,-154.18478
88008604,-17.967154,-140.98019,-59.944977,-143.48032,-30.944376,25.226534,-14.030122,-160.86777
89008599.5,-17.917448,-153.7216,-50.581753,-153.52322,-12.957797,-152.83507,-11.203796,-117.41319
90008595,-18.456709,-161.59138,-51.213188,20.632874,-16.960533,112.24657,-11.000187,-133.3875
91008590.5,-18.401054,-165.16309,-62.091331,109.79549,-15.536675,86.069016,-13.258989,-168.51953
92008586,-17.89609,-173.71338,-57.697144,-112.72216,-25.005444,-156.04996,-16.730146,177.9503
93008581.5,-18.642035,-176.35646,-49.159027,-62.280876,-19.572205,-116.50491,-13.519856,-169.49141
94008577,-19.004953,174.98999,-63.434483,-169.52095,-15.330801,-166.99411,-30.857676,-142.742
95008572.5,-18.394653,168.33321,-49.360382,91.330261,-21.324144,133.75015,-11.483784,-164.38939
96008568,-18.368837,164.17093,-54.635834,-130.29892,-19.593922,4.799036,-19.739202,168.84111
97008563.5,-17.871923,158.05617,-53.604088,-160.26588,-18.991863,146.74174,-16.830788,-143.34325
98008559,-18.272654,147.69537,-46.741608,-152.61981,-29.888224,46.978195,-13.771698,-147.3121
99008554.5,-18.216013,142.69456,-50.029705,-56.995304,-25.209623,111.65669,-14.236329,133.62209
100008550,-18.861935,136.52631,-62.36306,-6.3302588,-15.79341,-151.7598,-18.887032,-146.82977
101008545.5,-18.659075,128.59489,-50.952293,-97.113998,-16.589062,-159.57307,-12.933619,164.10683
102008541,-18.742809,125.04653,-50.651844,37.277786,-14.197269,-69.633514,-20.695606,176.60049
103008536.5,-18.136982,118.85372,-58.150078,-106.90421,-18.418093,-39.875381,-13.735499,132.40523
104008532,-18.21435,114.38011,-52.232395,132.38388,-23.995348,118.15131,-10.974636,133.56653
105008527.5,-18.709293,108.86655,-48.306587,-121.27733,-17.805115,-70.589836,-18.017607,140.51698
106008523,-18.860325,100.74555,-57.552326,138.10701,-27.492243,-44.289127,-12.172327,94.164413
107008518.5,-18.281115,97.313896,-57.109848,-153.14148,-43.634281,-37.888142,-27.814133,93.605927
108008514,-18.097128,85.919853,-52.595169,59.261009,-13.411064,-7.5025439,-23.463676,44.988026
109008509.5,-18.088814,80.189362,-49.949223,101.35691,-20.461426,31.900177,-17.406609,120.07634
110008505,-18.757887,78.299423,-53.941704,110.14021,-20.886505,-92.46328,-24.338974,67.928986
111008500.5,-18.319666,68.302101,-47.839863,-131.60316,-14.660152,-84.150291,-16.545183,91.842789
112008496,-18.322384,62.617195,-59.830746,-112.38944,-15.910141,-165.21539,-17.249311,124.86536
113008491.5,-18.571539,59.885918,-53.543518,176.63428,-16.991917,8.3390875,-19.323488,113.09111
114008487,-18.201736,54.802567,-48.564625,89.250511,-27.647429,-90.82106,-19.357798,136.45401
115008482.5,-17.763641,47.065475,-51.296486,-21.060865,-12.299417,-162.65704,-18.620888,61.523457
116008478,-17.524916,38.716019,-54.385754,144.80107,-19.588255,-43.757275,-21.991028,135.2628
117008473.5,-18.257526,30.329319,-56.668602,137.01065,-24.506048,40.513,-19.662563,40.706833
118008469,-17.768963,27.838047,-61.081989,-59.522285,-18.41391,-151.47105,-22.717525,149.83852
119008464.5,-17.346178,23.054857,-54.418705,163.62152,-26.261806,114.7299,-39.796318,-82.7631
120008460,-17.648735,16.433344,-50.178547,126.74327,-17.784924,145.82831,-15.246638,49.043423
121008455.5,-17.770666,8.6710367,-55.758457,-119.48547,-19.013184,-179.451,-53.822514,60.694023
122008451,-17.183397,2.9821732,-70.608353,-126.78609,-19.163574,173.57202,-26.135143,-97.760902
123008446.5,-17.94697,-4.7575245,-53.766762,105.99352,-28.866751,-164.15253,-13.812172,14.325934
124008442,-17.902906,-6.7159643,-51.726196,129.38504,-21.668179,108.62634,-19.361423,92.450768
125008437.5,-17.841917,-11.828324,-54.543358,-119.47186,-13.348228,26.273783,-14.189412,45.269867
126008433,-17.371422,-24.668907,-58.50914,19.519711,-26.431147,163.60788,-17.216545,13.620655
127008428.5,-17.479935,-26.32432,-50.889553,-135.49451,-24.415327,89.423706,-16.832253,49.349697
128008424,-17.73945,-30.975246,-56.106876,60.73661,-30.528669,16.378471,-25.369177,9.5700569
129008419.5,-17.171618,-38.956196,-52.464184,-71.777771,-17.822037,17.045317,-20.675346,-54.72065
130008415,-17.480387,-40.38472,-69.085777,-8.2099018,-14.243496,56.286625,-20.708998,69.128593
131008410.5,-17.654842,-50.699379,-62.735069,71.24501,-21.882793,65.926292,-22.826326,52.585773
132008406,-17.905724,-53.393414,-47.415989,133.72934,-19.784542,-49.92514,-13.269411,21.908438
133008401.5,-17.524031,-59.608269,-50.327366,116.3531,-16.50502,-54.150688,-27.243322,33.04377
134008397,-17.372335,-64.603722,-56.148739,26.833361,-24.775017,-60.88171,-16.687534,23.622183
135008392.5,-17.299881,-73.705894,-59.351894,-79.383659,-33.667984,35.800522,-31.732243,130.02097
136008388,-17.907133,-75.053917,-54.401234,-76.133926,-19.63533,78.554367,-19.028492,-20.984428
137008383.5,-17.56687,-82.019501,-65.312279,49.418045,-12.559258,-17.873903,-19.661285,47.535938
138008379,-17.466599,-87.841049,-50.518627,-102.28331,-35.609371,57.389435,-17.31325,20.914846
139008374.5,-17.583361,-93.258774,-65.910805,163.22159,-14.221207,-37.639427,-22.55645,-50.95615
140008370,-17.631613,-103.98118,-57.012478,-158.52733,-13.942046,-55.134464,-16.121252,120.01083
141008365.5,-17.445961,-104.40937,-54.563408,164.99275,-31.450659,-72.01622,-14.659786,-49.664581
142008361,-17.63607,-111.51585,-60.654835,-24.92466,-13.989672,-126.50735,-22.865959,-9.3461552
143008356.5,-17.88484,-118.80975,-56.700863,144.45108,-23.620869,-60.140247,-14.325403,-22.605808
144008352,-17.66847,-124.78765,-59.892292,-108.57324,-16.158663,-122.48736,-17.826536,-42.517017
145008347.5,-17.35948,-130.20224,-51.086891,23.654167,-15.261862,-96.796242,-21.627287,6.5720549
146008343,-17.106894,-136.0181,-60.240311,39.01445,-12.940321,175.89304,-18.450239,-77.81366
147008338.5,-17.969372,-141.67667,-51.836689,-32.659847,-20.324999,-40.256458,-13.678641,9.606185
148008334,-17.591188,-149.71379,-59.690975,-1.0135152,-20.13072,-19.015104,-22.956316,-64.305054
149008329.5,-17.445883,-154.58234,-58.526077,26.219061,-28.56669,160.97136,-16.895916,-53.638889
150008325,-18.215158,-158.44232,-56.307743,165.13574,-17.106556,-155.00623,-15.625137,-69.271759
151008320.5,-17.566139,-165.12192,-59.698936,167.73735,-20.683475,-177.18182,-14.894254,-89.159599
152008316,-17.593409,-171.24995,-53.604481,-55.191219,-14.945454,169.09877,-19.998768,-43.039906
153008311.5,-17.529362,-177.39334,-56.863102,0.29310587,-22.757425,102.27733,-22.841415,171.13399
154008307,-17.224001,175.59914,-52.160511,-140.47353,-25.424032,-135.39412,-15.293387,-124.61061
155008302.5,-17.284639,169.30983,-51.831966,-57.171867,-16.626434,-176.60881,-18.847351,-58.511539
156008298,-17.885592,164.69334,-64.619125,149.43863,-33.987686,143.45164,-13.691023,-104.22704
157008293.5,-17.524397,161.17252,-50.802696,-126.82409,-23.080559,-156.12367,-13.345735,-88.795662
158008289,-17.704962,152.32745,-53.453251,-143.35454,-21.468266,8.7074013,-29.51346,164.46729
159008284.5,-17.0858,145.62674,-54.672558,137.22752,-13.885529,108.56908,-13.187682,-144.51393
160008280,-16.989567,139.2235,-48.320862,28.832195,-33.860931,-21.191504,-14.902375,-97.948639
161008275.5,-17.06558,134.89445,-61.470097,-44.742031,-18.247108,-7.5992746,-19.512386,-142.7126
162008271,-17.053829,131.58287,-55.386288,34.488136,-27.49585,7.9160485,-19.253323,165.46039
163008266.5,-17.280098,122.82553,-49.291016,15.776114,-23.494238,-155.58057,-14.32909,-110.67657
164008262,-17.20924,115.60256,-49.300587,-107.37216,-32.219608,107.962,-20.742741,-134.64561
165008257.5,-17.434881,113.89433,-47.966209,27.83267,-19.656176,27.728014,-18.831459,-130.46065
166008253,-16.716513,107.53651,-53.684212,-90.882919,-31.502029,-131.20934,-16.549442,-127.41088
167008248.5,-17.547009,102.08114,-52.047138,74.255806,-19.869955,118.46813,-13.365944,-165.04936
168008244,-16.942675,94.341446,-60.675957,0.017515425,-17.823395,-43.866165,-34.936745,-0.36127731
169008239.5,-16.454426,89.950966,-74.736778,59.449619,-18.640684,79.971336,-16.258705,-146.14221
170008235,-16.435295,82.408615,-55.399231,-138.02927,-21.079611,-108.54547,-19.44422,-87.596962
171008230.5,-16.797527,76.687401,-64.155685,-59.060928,-19.854284,-73.149185,-17.587843,-175.05762
172008226,-16.999828,73.699593,-55.406937,78.125092,-20.141432,41.640659,-17.877954,-153.70285
173008221.5,-17.005022,68.752953,-56.117706,103.77478,-27.487938,-13.101518,-19.808325,-115.89692
174008217,-16.623024,62.531303,-56.136787,-178.29652,-16.576548,55.943279,-15.367894,161.74803
175008212.5,-16.694216,54.779922,-56.041264,78.180283,-17.491455,-57.666496,-22.235588,-120.51348
176008208,-17.215921,53.202301,-63.368713,-12.330319,-20.145214,91.180397,-19.864433,162.42368
177008203.5,-16.851686,45.207867,-51.639851,94.433083,-34.873718,-114.45576,-19.648108,165.45155
178008199,-16.259541,40.032421,-59.359489,146.92374,-10.246256,-5.3202047,-32.234875,77.750664
179008194.5,-16.79426,33.083572,-63.372002,43.177639,-23.995592,-26.568033,-15.091541,78.434402
180008190,-16.709703,26.132938,-47.593002,83.293541,-18.090046,-40.540211,-19.506697,143.60699
181008185.5,-16.279778,25.414543,-58.557877,29.343674,-23.567049,-46.325741,-12.305524,149.7048
182008181,-16.704695,16.521711,-51.476952,178.39009,-19.609163,-89.380577,-12.972523,-177.66385
183008176.5,-16.668905,9.5779724,-50.962936,136.17572,-15.977859,-47.018787,-23.295061,135.47107
184008172,-16.429256,6.1024375,-58.582424,-145.01884,-31.258915,42.863316,-12.100781,144.72095
185008167.5,-16.910309,-0.17846903,-51.547573,-178.23972,-21.547031,178.85515,-19.105303,125.60688
186008163,-16.882261,-2.8153436,-56.36972,173.83633,-28.24185,-103.55594,-27.449083,65.442192
187008158.5,-16.649773,-12.880834,-45.287354,-168.92741,-23.086134,-95.31414,-15.426469,120.41525
188008154,-16.568987,-15.346329,-62.291588,-84.698547,-24.114264,-171.53773,-15.561373,97.699028
189008149.5,-16.670242,-23.135267,-51.048008,114.10217,-23.154661,141.1373,-16.23204,108.2932
190008145,-16.76804,-27.507378,-60.994877,106.66885,-22.661108,-109.18331,-12.528948,73.530647
191008140.5,-16.625082,-32.021568,-54.063999,-105.34566,-18.189301,74.581291,-10.172371,67.09095
192008136,-16.496025,-39.45499,-52.791061,27.687302,-22.869225,-57.932663,-15.336308,67.249435
193008131.5,-16.728352,-44.059414,-54.283939,-89.384399,-17.792292,115.78551,-18.32601,108.71161
194008127,-16.710783,-52.3894,-51.202213,173.08655,-22.160326,-81.03627,-16.001375,124.473
195008122.5,-16.933065,-54.700062,-54.061462,70.392723,-18.464315,131.41862,-14.835253,50.776356
196008118,-16.889114,-61.835911,-50.948887,170.96852,-18.318069,81.847946,-24.302889,23.695726
197008113.5,-17.004023,-65.085892,-65.099167,-27.751337,-24.64732,167.87115,-15.858755,40.734905
198008109,-16.59325,-71.408401,-54.282001,-131.3109,-20.617783,144.23726,-13.922972,58.931732
199008104.5,-17.408106,-78.893448,-57.286201,-137.58461,-25.406664,170.72171,-17.946329,49.020386
200008100,-16.894758,-85.049698,-49.998234,-28.560596,-16.260735,156.20638,-15.081738,63.270176
201008095.5,-17.443445,-89.91687,-56.410713,12.061494,-22.40745,-26.232248,-12.173689,30.153564
202008091,-16.944809,-95.22821,-54.132946,-20.540163,-22.229111,-162.53532,-18.300909,70.932121
203008086.5,-16.959291,-101.06924,-52.018681,86.372475,-15.767044,54.701118,-20.644308,2.9367909
