!CSV A.01.01
!Keysight Technologies,P5024A,MY58100101,A.13.90.09
!Date: Friday, January 24, 2020 13:47:41
!Source: Standard

BEGIN CH1_DATA
Freq(Hz),S11(MAG),S11(DEG),S12(MAG),S12(DEG),S21(MAG),S21(DEG),S22(MAG),S22(DEG)
10000000,0.9499734,-117.76382,0.00067522819,-74.254265,0.0091248192,-1.691492,0.021845093,-167.15633
10995000,0.94686049,-129.30762,0.00239535,134.83058,0.01549542,-59.342602,0.013281382,126.37011
11990000,0.93557179,-141.8056,0.0018871928,-142.66269,0.0017003954,36.436626,0.0065725534,-118.74384
12985000,0.91810656,-153.60271,0.0013583311,-77.560463,0.025181066,67.342636,0.0082073193,79.40184
13980000,0.90373105,-165.44498,0.0010467613,-15.350962,0.012440586,-25.41551,0.004206005,-6.3243976
14975000,0.8874265,-177.19995,0.001407653,158.17793,0.016864393,-157.82753,0.017467098,41.12104
15970000,0.87149966,170.92932,0.00041309994,94.270569,0.024848068,-83.459122,0.015699752,-9.1062279
16965000,0.85997015,159.18776,0.0049749413,134.06824,0.018068084,-52.116436,0.0054454585,-59.632462
17960000,0.83787799,148.13307,0.0017265062,-79.615875,0.0078190453,-77.920639,0.016076855,-36.271069
18955000,0.8333084,136.97543,0.0023725103,92.927986,0.0400724,-96.980278,0.01573468,-75.39843
19950000,0.8134765,124.63832,0.0028762962,-95.940636,0.027728373,-105.41596,0.017208401,-50.384033
20945000,0.80417615,113.2561,0.0016195449,45.03796,0.024647046,-50.008633,0.0052858531,-42.208622
21940000,0.80117714,101.89344,0.0015974035,-136.73306,0.045532472,179.40575,0.0075607677,-52.489616
22935000,0.78206974,90.865891,0.00061161717,178.65662,0.063631512,-160.14609,0.027094916,-80.890816
23930000,0.77426243,78.797615,0.0042262026,46.090958,0.064521052,-171.67946,0.017722892,-89.987633
24925000,0.76357538,67.071304,0.00049742486,-117.64598,0.0067437347,119.51226,0.024935849,-152.21004
25920000,0.74352437,55.020592,0.0019076339,92.311516,0.020791309,-149.54411,0.029886102,-148.24197
26915000,0.75805807,44.129242,0.0025340051,-80.523552,0.044036094,113.60726,0.013319419,-162.00339
27910000,0.74766243,32.029911,0.0013729205,-53.578213,0.087248698,146.50372,0.011089987,-154.38269
28905000,0.73489833,19.722874,0.0034352751,1.1168807,0.12048119,163.51236,0.011655678,167.76939
29900000,0.72533125,8.8162537,0.0049512228,-20.463728,0.1035943,162.58746,0.012727275,-105.815
30895000,0.72106493,-3.701916,0.0078358361,59.986328,0.24610391,172.61113,0.069757417,-112.50025
31890000,0.71085113,-15.904711,0.0040226374,117.71172,0.19128609,143.32024,0.044727873,-125.76559
32885000,0.68984425,-27.495876,0.00078656734,100.33149,0.082589976,173.67041,0.039195251,117.35615
33880000,0.67664164,-39.182728,0.0012426589,24.369005,0.30556726,150.13547,0.013546946,-163.73218
34875000,0.67760193,-53.551086,0.0060091303,36.822552,0.22362608,109.83194,0.083903871,-47.811825
35870000,0.66523087,-66.713837,0.00064385793,-175.14003,0.43991411,80.098145,0.028465804,-166.13225
36865000,0.64777571,-76.742828,0.0016068143,-135.33487,0.50491875,55.807888,0.010556724,129.27821
37860000,0.63271677,-91.506073,0.0047508604,-120.09355,0.5958311,64.466248,0.070375934,119.46082
38855000,0.60591769,-103.58982,0.0047108703,163.16481,0.85443556,28.061953,0.043894634,171.25632
39850000,0.58276159,-115.64027,0.0012103181,7.5733004,0.84186375,23.93646,0.04502723,142.56609
40845000,0.54883707,-128.35844,0.0072015892,47.250053,1.1238803,5.2822127,0.026561935,-126.76028
41840000,0.53399265,-140.00621,0.0034724737,-20.049067,1.4718379,-9.2708492,0.035020113,137.68927
42835000,0.50103283,-151.59679,0.0031266033,120.91116,1.8386012,-28.427528,0.068356059,-174.25644
43830000,0.47925475,-164.54349,0.00073789863,-160.70363,1.8422718,-35.641567,0.028347885,163.4633
44825000,0.44481081,-174.91615,0.0066028098,28.408485,2.6184456,-54.984169,0.039416693,81.805817
45820000,0.42043424,174.09486,0.0028496576,133.56738,2.6685789,-73.318008,0.023967862,90.087196
46815000,0.3932398,162.25153,0.0067181108,-125.49834,3.2415013,-84.850983,0.021555524,-139.36577
47810000,0.37445185,152.05884,0.0082360618,-46.588749,3.6075149,-101.69954,0.032189418,-105.35447
48805000,0.34061384,142.9364,0.003609621,71.226395,4.040844,-113.73235,0.075550906,-166.68483
49800000,0.32031643,130.4935,0.0036133225,30.114855,4.5928564,-132.71791,0.023217753,161.69312
50795000,0.30753347,121.013,0.0038293274,91.780983,5.131701,-141.55298,0.051994342,-171.92088
51790000,0.30261952,112.95622,0.0013948064,-37.806442,5.8371878,-153.82883,0.041813225,6.5554862
52785000,0.27902398,102.93725,0.0026197999,67.084023,6.3716583,-167.92693,0.044451252,-150.41609
53780000,0.26495767,93.257813,0.0030775354,-103.48801,7.2380099,179.81703,0.044597447,141.49883
54775000,0.23538658,85.803726,0.002310538,50.936825,7.7412992,163.87502,0.05333855,-164.47742
55770000,0.25179508,77.782104,0.0025008847,-123.131,8.8412952,152.74684,0.031165933,60.133801
56765000,0.22609504,66.853333,0.0023923926,-89.496651,9.7827816,138.76241,0.058969419,143.95148
57760000,0.20272066,60.038593,0.0048952624,-130.19214,10.471377,125.34713,0.012217321,165.18459
58755000,0.20012581,50.680897,0.00025567441,-171.53445,11.628394,112.83182,0.024280788,67.425163
59750000,0.18492086,41.262558,0.0010531617,80.554619,12.544185,99.869705,0.061194137,123.00821
60745000,0.17650251,35.856937,0.0027283104,-154.99666,13.807772,86.70993,0.048279002,-81.62606
61740000,0.17317252,25.651808,0.004512731,-2.2212036,14.978153,74.826012,0.046109065,-109.44321
62735000,0.18575609,20.780111,0.0027090451,-162.15024,16.598297,64.821259,0.0041283164,-53.95055
63730000,0.17335385,15.752748,0.0030102308,-82.105499,17.586046,51.889179,0.054347575,11.202621
64725000,0.15232131,5.3851252,0.003150373,-111.37262,18.678864,38.858421,0.026116135,-154.66431
65720000,0.16088727,-2.3426342,0.0037752159,-49.21703,20.537689,26.017649,0.043389369,-38.233154
66715000,0.13753451,-7.3005152,0.0017516979,173.91484,21.965219,15.391397,0.072338566,59.7234
67710000,0.1475928,-17.180426,0.0031589812,17.112511,23.634283,1.8758875,0.038456742,5.3970323
68705000,0.15943228,-23.608364,0.0032968707,-0.56992143,25.391827,-9.9301214,0.058688514,-88.235542
69700000,0.14916156,-26.607088,0.0034643661,66.96151,26.993469,-21.365248,0.016908091,172.34839
70695000,0.14661597,-38.040874,0.0008324738,143.57176,28.547209,-33.782516,0.068040229,69.881401
71690000,0.13464309,-43.173447,0.0010667001,-74.350288,30.302534,-45.190285,0.042495925,165.65227
72685000,0.14197001,-52.601597,0.0040051583,-147.22624,31.568563,-57.277763,0.061185122,105.44035
73680000,0.14504308,-57.267151,0.0031663694,56.557617,33.547913,-69.189537,0.060145531,3.4071798
74675000,0.13901968,-62.936138,0.0029932419,150.11665,34.939075,-80.700127,0.012323018,3.4136019
75670000,0.12948079,-68.299744,0.0025532204,-157.24501,36.825119,-92.221146,0.012559216,-164.54622
76665000,0.123511,-75.065529,0.0056015644,71.680107,38.415733,-103.5397,0.018331865,176.19672
77660000,0.13208318,-79.40876,0.0014009982,-30.088175,40.501228,-115.10702,0.015867718,33.384659
78655000,0.13278159,-91.772179,0.0028379445,-169.17329,41.422264,-126.40116,0.058188349,-128.39171
79650000,0.13352931,-95.326614,0.0037499524,0.10651252,43.170399,-138.6573,0.067656472,-129.82309
80645000,0.12620731,-98.375053,0.0041003963,142.71399,44.729988,-148.38521,0.033848215,6.1873198
81640000,0.13192753,-109.63528,0.0017709009,167.61353,45.546928,-160.76674,0.070985138,-176.8132
82635000,0.1167872,-111.08283,0.001836764,32.604176,47.09528,-170.25832,0.064610049,-164.58484
83630000,0.12190191,-119.61211,0.0022434413,-32.941952,48.434921,177.92108,0.055043284,39.467564
84625000,0.13230453,-129.63083,0.00034614603,127.56787,49.019775,167.55643,0.085203409,53.390232
85620000,0.12214646,-138.02312,0.00089197274,-29.197437,50.281837,157.44182,0.084429048,-171.86316
86615000,0.1172602,-141.81154,0.0055918624,-57.66573,51.847195,146.46126,0.063142173,121.0331
87610000,0.12797299,-150.12791,0.0032787316,112.22955,52.447929,136.17685,0.049383402,-71.297104
88605000,0.12512115,-155.47145,0.0049039871,107.69457,53.342899,125.73547,0.020318732,101.49253
89600000,0.1227349,-157.00848,0.0061892611,63.23732,54.747112,115.38074,0.013909192,-120.58117
90595000,0.1165028,-162.67047,0.0031135343,-7.8578978,55.496841,105.33021,0.079100445,149.80325
91590000,0.13229276,-168.73001,0.0032666,-158.2888,55.534573,95.40712,0.088873751,-54.163631
92585000,0.12290734,-177.43555,0.002399514,-18.703274,56.799858,85.184143,0.045394614,-98.143135
93580000,0.1274785,174.08209,0.0011212301,-163.97156,57.172451,75.88942,0.060098305,-39.084755
94575000,0.12132777,168.54979,0.0014868827,120.17565,58.300224,66.137138,0.10372393,-26.23403
95570000,0.11955155,163.85478,0.0037387547,-33.210705,59.524731,55.733982,0.038795192,-178.21062
96565000,0.12074922,160.02776,0.003312473,-143.13776,59.616352,46.376488,0.065394059,-163.48239
97560000,0.1193122,148.92378,0.0025226397,-6.885148,60.536133,37.135632,0.029172294,-16.469133
98555000,0.11245798,146.2728,0.00068504951,-34.710022,61.05978,28.266064,0.079497188,22.617943
99550000,0.1153691,137.49568,0.0008779426,-5.6523976,61.651379,18.049088,0.087985471,147.96939
100545000,0.12985928,136.53181,0.00046990303,36.596405,61.553101,8.9495869,0.060524132,-172.38721
101540000,0.11529522,129.30501,0.0029386312,83.745445,62.262424,-0.49219358,0.080266744,173.76358
102535000,0.11610167,126.94762,0.0041142032,42.895863,62.527145,-9.4465361,0.065597497,-175.70567
103530000,0.1124403,120.93528,0.0035863728,-21.548712,62.809021,-18.655497,0.097743385,-168.18723
104525000,0.12011945,110.39649,0.001099258,69.662605,63.922359,-27.194332,0.099179491,117.78691
105520000,0.11331359,104.51192,0.0020130528,-116.83226,64.663498,-36.488308,0.020780861,-170.00737
106515000,0.1206997,100.67064,0.0032852937,108.13257,64.704941,-45.020695,0.055316523,29.294447
107510000,0.11586919,96.709229,0.0027387703,23.846384,64.687393,-53.811893,0.1076877,140.22404
108505000,0.12945919,83.259201,0.003029241,23.515839,66.101669,-62.361553,0.033724733,-156.22412
109500000,0.12781261,82.760498,0.0017065412,80.099609,66.029572,-70.877426,0.04390135,100.76604
110495000,0.123958,76.092415,0.0015619001,-147.92471,66.258423,-79.738174,0.13136268,77.41375
111490000,0.11664787,65.771667,0.0032847822,147.24251,66.784332,-88.69001,0.028595984,-33.168251
112485000,0.11396261,64.421753,0.0018298506,-54.668259,66.754005,-96.994278,0.022468425,-148.64737
113480000,0.12594211,52.267246,0.0033921073,-116.14426,68.516327,-105.4153,0.024406118,-172.61511
114475000,0.12101392,46.486855,0.0021798783,44.008049,68.254631,-114.18651,0.044853184,-23.640903
115470000,0.12535815,40.377167,0.0015668785,-133.28687,68.223625,-122.61336,0.069731049,-74.535652
116465000,0.11618319,42.12339,0.0004760476,148.313,68.041222,-130.56187,0.069602877,95.063751
117460000,0.12235976,36.34985,0.0023444081,121.99091,68.935478,-138.73409,0.024419382,-175.28545
118455000,0.11617854,29.990221,0.0031539865,-153.48891,68.40313,-147.09448,0.058325894,141.28375
119450000,0.11807697,17.694639,0.0026377824,-154.09982,69.209572,-155.61012,0.06130546,-177.11043
120445000,0.12673029,11.63206,0.0016813972,-77.601692,69.797615,-163.29016,0.034209706,136.62962
121440000,0.12364011,7.1594706,0.0022810453,-167.21059,70.379234,-171.92268,0.053795829,15.06501
122435000,0.12831685,3.8261018,0.0046960693,51.315849,70.343956,-179.89018,0.044152848,-78.485428
123430000,0.11985695,-6.2423468,0.0010808954,177.24069,70.577019,172.1122,0.0032265689,123.83186
124425000,0.12361191,-9.3615818,0.0012232494,56.635456,70.936508,163.78603,0.044666577,113.84826
125420000,0.11995307,-20.48011,0.0018747824,21.399572,70.687378,156.02237,0.042957891,-171.32008
126415000,0.11783092,-17.016531,0.0028423001,110.2742,71.892532,148.16714,0.06440977,143.69249
127410000,0.1241182,-29.379847,0.0033525587,25.181814,71.24437,139.83521,0.13792408,102.54711
128405000,0.13744849,-37.639072,0.0026478919,-88.122353,71.99511,131.32735,0.05352309,47.190887
129400000,0.12289143,-46.73563,0.0031255004,166.07291,70.927643,123.73789,0.037922144,177.33604
130395000,0.12458983,-52.967751,0.0028718025,-160.11072,71.307816,115.76175,0.11176958,14.256122
131390000,0.13943909,-54.131062,0.0014146817,178.17207,72.361069,107.54118,0.02914395,-152.00089
132385000,0.13208385,-53.952503,0.0034210687,135.5321,73.517365,100.3168,0.053619023,114.7496
133380000,0.12862734,-62.035992,0.0014700831,-112.86306,73.382484,92.757141,0.05023564,67.391472
134375000,0.13306038,-66.325035,0.0013536664,72.50193,74.122093,84.731049,0.086165369,144.58522
135370000,0.12965943,-76.799248,0.0023607041,-22.835157,73.302162,76.98777,0.038914453,141.83243
136365000,0.13294852,-80.532135,0.0051237564,106.31284,73.878395,69.106209,0.050178085,-52.140583
137360000,0.12837103,-87.097389,0.0036852518,34.523117,73.916161,61.664738,0.0363435,-8.4936781
138355000,0.13805692,-93.360863,0.0027119115,66.023834,74.031296,53.969921,0.01762077,86.366638
139350000,0.12399771,-97.946281,0.0013864691,54.566368,74.082436,46.449322,0.056309819,-60.649376
140345000,0.13571443,-108.57308,0.0041847704,174.51563,74.288597,38.935574,0.038026843,-35.045155
141340000,0.12607509,-115.11856,0.0021040384,-43.669411,74.017319,31.675566,0.045828015,-112.09082
142335000,0.14244297,-120.21069,0.0055288835,30.885969,73.759132,22.919516,0.049446821,-167.75067
143330000,0.13681659,-120.8387,0.004177785,-170.04005,74.926773,15.639997,0.038775783,-164.48929
144325000,0.14832374,-129.46071,0.0023994844,34.253128,74.149185,7.7662315,0.077943191,-103.70335
145320000,0.13971059,-133.33716,0.0029703346,155.66211,74.741257,0.2953648,0.080945745,-64.825104
146315000,0.13615493,-139.25105,0.0025050989,93.148079,75.540527,-6.858326,0.10272313,17.196793
147310000,0.13089442,-145.58636,0.0031304355,-63.832012,75.460159,-14.710405,0.014803047,-77.029747
148305000,0.1454661,-149.14136,0.00038571042,-74.977165,74.948708,-22.060377,0.075003415,69.991371
149300000,0.14285338,-156.63618,0.0018364467,-77.850273,74.959114,-29.13489,0.10737034,85.545227
150295000,0.1414721,-159.90425,0.0041143652,170.21696,75.351814,-37.002357,0.02978334,-118.26601
151290000,0.14126615,-164.16844,0.0045388546,-93.733459,75.121017,-44.802067,0.059715938,-95.771545
152285000,0.13504393,-174.95872,0.0014182506,57.769207,75.8228,-51.760128,0.07516481,-35.246258
153280000,0.13806997,-177.06859,0.0018313008,96.88723,76.279053,-59.24041,0.068986125,-165.10161
154275000,0.13678329,174.67149,0.0016832511,31.065067,76.144974,-66.322876,0.029533751,128.11014
155270000,0.14590374,168.61282,0.0022047842,-140.98538,76.057648,-73.725105,0.039371729,75.280678
156265000,0.13869509,162.26321,0.001641342,-156.35919,76.554749,-80.566368,0.073863305,-58.262852
157260000,0.14038117,154.7776,0.001789336,-127.44771,76.750771,-88.211319,0.072832644,-120.33182
158255000,0.14480673,153.34155,0.004933699,-43.919193,75.903305,-95.39241,0.060943823,-97.179657
159250000,0.14566877,143.80022,0.0016363115,-170.39449,77.326965,-102.77983,0.11420865,90.126717
160245000,0.14630775,143.12704,0.0020170298,38.627708,76.403549,-109.80896,0.032499604,18.571711
161240000,0.14605829,133.93282,0.0029848379,164.74042,76.266449,-117.20209,0.087210827,-58.09782
162235000,0.15207167,128.20314,0.0034168593,39.640949,76.268753,-124.15362,0.069570497,-22.669252
163230000,0.13674027,122.31693,0.003643089,85.741859,76.383041,-131.73894,0.078863397,112.08047
164225000,0.12925269,118.89848,0.0028768023,118.23709,76.493797,-139.40762,0.047147859,-96.938194
165220000,0.14277144,105.89556,0.0038867095,-31.854803,78.055641,-146.54172,0.067565635,-57.601875
166215000,0.13997871,105.23317,0.0039881873,128.36703,76.959068,-153.40352,0.051168509,-107.36745
167210000,0.1346328,101.35216,0.00043954316,-111.15813,76.855782,-161.05515,0.099168368,-169.61369
168205000,0.1321782,94.311157,0.00033409602,-160.76224,76.625862,-168.22311,0.063103288,55.891369
169200000,0.1413462,93.398895,0.0031069438,-95.026337,76.665886,-174.31805,0.08809568,57.687874
170195000,0.142129,83.827553,0.0029520714,161.01465,77.576454,178.04323,0.10862545,150.66466
171190000,0.13752513,74.671539,0.0013495038,-122.19177,77.149132,170.36743,0.047234528,-69.839264
172185000,0.14657356,68.092041,0.0023652606,-107.41859,77.722488,163.00449,0.056895196,57.980808
173180000,0.13888313,64.899696,0.0025950088,71.869438,77.302666,156.459,0.1143269,-112.87275
174175000,0.13262028,58.830273,0.0042832079,152.96558,76.662582,148.91072,0.11459628,-158.13116
175170000,0.13829695,54.548893,0.0023699696,115.9146,77.284439,142.44691,0.057611037,-25.785919
176165000,0.14305373,47.896267,0.0019772837,155.79625,77.191147,135.17096,0.050440472,-25.658907
177160000,0.13292348,48.670689,0.005732086,168.8338,77.022507,128.62903,0.083574332,136.70839
178155000,0.14946088,33.046322,0.001326229,-65.116089,77.807251,120.64597,0.015758367,33.415863
179150000,0.13939404,31.407103,0.0017856059,-148.46477,77.549294,114.0425,0.067776844,112.32825
180145000,0.14077789,28.544783,0.0018257196,166.0696,77.3172,107.44518,0.10946614,112.52238
181140000,0.13922985,17.425171,0.002372409,117.20093,77.766228,100.11925,0.095764123,-136.05809
182135000,0.15175208,14.249309,0.0043613734,72.072289,78.798012,93.023552,0.064669974,155.63356
183130000,0.14153914,11.845057,0.0079602515,4.1415477,77.591019,86.124336,0.075607881,170.80829
184125000,0.14356329,-1.7752393,0.0045903632,20.574196,77.714699,78.9021,0.025759259,47.163525
185120000,0.12808068,-0.42361864,0.0041907518,-12.183018,76.712341,72.624908,0.095762968,69.690125
186115000,0.14874522,-8.5887451,0.0021937566,-130.68883,77.857246,65.169762,0.095379725,-50.44146
187110000,0.1387956,-14.379232,0.0030335819,-13.465526,77.760712,58.357426,0.019481029,33.146141
188105000,0.15406556,-16.507118,0.00046532869,-155.07855,79.444885,51.482929,0.028173493,126.37474
189100000,0.14051539,-27.320869,0.0046984996,154.63231,77.337646,44.405903,0.025092816,-78.217567
190095000,0.14507058,-29.129339,0.0057141469,48.511608,78.193863,37.667458,0.076340385,124.25156
191090000,0.14030997,-34.897064,0.0014332044,28.048552,77.93689,30.33466,0.04932614,93.502762
192085000,0.14096217,-41.619015,0.0058038854,10.150475,78.034851,23.615591,0.090791412,78.622986
193080000,0.15597142,-50.316933,0.0018320329,-56.129944,78.250183,15.854044,0.045407195,114.62785
194075000,0.15215105,-53.529877,0.0013247625,-74.614006,78.191116,9.0100269,0.073376372,17.380098
195070000,0.14759196,-60.93087,0.0004100615,-108.11823,78.695168,2.9487929,0.031420626,-32.389572
196065000,0.14531508,-62.928452,0.004370064,-141.27362,79.013054,-3.8879669,0.06988623,120.95008
197060000,0.14495558,-68.947006,0.0031350702,100.08788,78.641319,-11.321943,0.059277274,-112.67789
198055000,0.14483845,-75.277023,0.004959364,-9.4505072,79.083389,-17.927114,0.073506445,-135.01892
199050000,0.15174022,-77.019119,0.0053671864,70.666206,79.502876,-25.653999,0.14026175,-118.81152
200045000,0.1458105,-84.780724,0.0019477919,174.63478,79.083267,-32.388851,0.061728649,-41.061481
201040000,0.14513764,-93.159508,0.0028969429,155.62158,78.234322,-39.336769,0.047961179,51.245251
202035000,0.14717649,-97.039406,0.0015765192,82.024025,78.861061,-45.967003,0.071890034,54.197651
203030000,0.14516969,-105.39645,0.0034540761,151.91788,78.93708,-52.234798,0.1120962,93.178307
204025000,0.15255485,-106.87796,0.0016200037,118.62926,78.66523,-59.833652,0.029543271,-53.84885
205020000,0.14964046,-114.23695,0.0021926335,-21.34466,78.690285,-66.328308,0.089265965,-100.91692
206015000,0.15270172,-120.08537,0.0012317067,43.368092,77.914627,-73.321129,0.1103806,-167.93524
207010000,0.14622499,-128.18307,0.0038130202,-158.18585,79.183235,-79.990685,0.054408465,-77.476234
208005000,0.14243929,-128.80804,0.00091889215,24.118563,79.182487,-87.172867,0.11447423,-114.46155
209000000,0.15086325,-137.16455,0.0010878606,-2.2585485,79.08812,-93.204575,0.084723428,129.88707
