! Mini-Circuits								
! S2P DATA File Format								
! Type: LOW PASS FILTER								
! Model: ULP-216+								
! All S Parameters are in dB deg format								
! TEST CONDITIONS: INPUT POWER = 0 dBm @ Temperature = +25deg C															
!								
# MHz S DB R 50								
!								
!Frequency        S11 dB  S11 DEG   S21 dB  S21 DEG   S12 dB  S12 DEG   S22 dB  S22 DEG
    .5000     -3.801447E+001  4.735558E+000 -1.587860E-001 -5.053975E-001 -1.594045E-001 -4.797192E-001 -3.733370E+001  3.610183E+000
   1.0000     -3.776797E+001  5.243130E+000 -1.554412E-001 -1.077969E+000 -1.566064E-001 -1.066510E+000 -3.755415E+001  3.590178E+000
   1.5000     -3.779581E+001  6.031899E+000 -1.588418E-001 -1.633073E+000 -1.596074E-001 -1.638422E+000 -3.770568E+001  5.630735E+000
   2.0000     -3.796590E+001  7.854664E+000 -1.633493E-001 -2.182690E+000 -1.607151E-001 -2.178050E+000 -3.775793E+001  6.920657E+000
   2.5000     -3.791642E+001  7.067744E+000 -1.596207E-001 -2.753981E+000 -1.626848E-001 -2.745101E+000 -3.768322E+001  7.018261E+000
   3.0000     -3.779815E+001  8.072437E+000 -1.620481E-001 -3.302881E+000 -1.632545E-001 -3.304697E+000 -3.766419E+001  8.104907E+000
   3.5000     -3.764343E+001  8.941739E+000 -1.613289E-001 -3.859007E+000 -1.637782E-001 -3.863750E+000 -3.758624E+001  8.579571E+000
   4.0000     -3.750504E+001  9.569048E+000 -1.622959E-001 -4.414265E+000 -1.647613E-001 -4.412937E+000 -3.742896E+001  9.390567E+000
   4.5000     -3.757051E+001  1.169582E+001 -1.652577E-001 -4.956084E+000 -1.654788E-001 -4.958143E+000 -3.732211E+001  1.006414E+001
   5.0000     -3.733361E+001  1.079240E+001 -1.630471E-001 -5.513202E+000 -1.668911E-001 -5.506402E+000 -3.718242E+001  1.080817E+001
   6.0000     -3.706350E+001  1.210272E+001 -1.665957E-001 -6.606651E+000 -1.665432E-001 -6.601311E+000 -3.696680E+001  1.195605E+001
   7.0000     -3.677322E+001  1.276201E+001 -1.675456E-001 -7.702248E+000 -1.702537E-001 -7.690744E+000 -3.660551E+001  1.264949E+001
   8.0000     -3.652220E+001  1.342906E+001 -1.693040E-001 -8.795981E+000 -1.730445E-001 -8.786238E+000 -3.641039E+001  1.288660E+001
   9.0000     -3.627387E+001  1.389282E+001 -1.734850E-001 -9.882794E+000 -1.755999E-001 -9.882172E+000 -3.611943E+001  1.329170E+001
  10.0000     -3.600483E+001  1.388396E+001 -1.748081E-001 -1.098159E+001 -1.765698E-001 -1.096840E+001 -3.588289E+001  1.340865E+001
  11.0000     -3.576176E+001  1.362149E+001 -1.782944E-001 -1.205767E+001 -1.813810E-001 -1.206006E+001 -3.561194E+001  1.359994E+001
  12.0000     -3.549691E+001  1.351382E+001 -1.805687E-001 -1.314205E+001 -1.824609E-001 -1.315750E+001 -3.531655E+001  1.330573E+001
  13.0000     -3.527915E+001  1.296946E+001 -1.837787E-001 -1.424465E+001 -1.862861E-001 -1.423854E+001 -3.509840E+001  1.279006E+001
  14.0000     -3.508881E+001  1.261607E+001 -1.860839E-001 -1.532183E+001 -1.889847E-001 -1.531046E+001 -3.489986E+001  1.204911E+001
  15.0000     -3.487446E+001  1.189603E+001 -1.900354E-001 -1.640371E+001 -1.915849E-001 -1.640426E+001 -3.473903E+001  1.134744E+001
  16.0000     -3.470635E+001  1.111771E+001 -1.928258E-001 -1.748674E+001 -1.929594E-001 -1.748709E+001 -3.457829E+001  1.075746E+001
  17.0000     -3.454931E+001  1.040310E+001 -1.949458E-001 -1.857175E+001 -1.974417E-001 -1.856792E+001 -3.433955E+001  9.950651E+000
  18.0000     -3.432959E+001  9.435183E+000 -1.967643E-001 -1.966285E+001 -2.008428E-001 -1.964856E+001 -3.416926E+001  8.974732E+000
  19.0000     -3.421592E+001  8.252370E+000 -2.007932E-001 -2.073552E+001 -2.023941E-001 -2.073186E+001 -3.406603E+001  7.802127E+000
  20.0000     -3.413927E+001  7.323638E+000 -2.037040E-001 -2.181878E+001 -2.061989E-001 -2.181279E+001 -3.395447E+001  6.729956E+000
  21.0000     -3.398983E+001  6.159314E+000 -2.078510E-001 -2.290376E+001 -2.077070E-001 -2.289510E+001 -3.376835E+001  5.508419E+000
  22.0000     -3.391126E+001  5.170866E+000 -2.092286E-001 -2.398219E+001 -2.107380E-001 -2.397337E+001 -3.364252E+001  4.284555E+000
  23.0000     -3.379664E+001  3.750973E+000 -2.131616E-001 -2.505685E+001 -2.126453E-001 -2.505700E+001 -3.359075E+001  3.117087E+000
  24.0000     -3.368167E+001  2.700991E+000 -2.156697E-001 -2.614673E+001 -2.156276E-001 -2.614200E+001 -3.344815E+001  1.768148E+000
  25.0000     -3.361820E+001  8.658868E-001 -2.189526E-001 -2.722379E+001 -2.215329E-001 -2.721899E+001 -3.337271E+001  4.504123E-001
  26.0000     -3.354011E+001 -6.078681E-001 -2.224282E-001 -2.830127E+001 -2.214723E-001 -2.830857E+001 -3.330794E+001 -1.337302E+000
  27.0000     -3.350734E+001 -2.065029E+000 -2.237770E-001 -2.939321E+001 -2.255495E-001 -2.938364E+001 -3.323221E+001 -2.684405E+000
  28.0000     -3.344320E+001 -3.527212E+000 -2.255789E-001 -3.046533E+001 -2.278460E-001 -3.046116E+001 -3.319052E+001 -4.388404E+000
  29.0000     -3.337611E+001 -5.115615E+000 -2.302035E-001 -3.155421E+001 -2.307331E-001 -3.155279E+001 -3.314056E+001 -5.955677E+000
  30.0000     -3.336314E+001 -6.670721E+000 -2.330459E-001 -3.263120E+001 -2.345138E-001 -3.263297E+001 -3.306939E+001 -7.716847E+000
  31.0000     -3.335268E+001 -8.457390E+000 -2.344260E-001 -3.372058E+001 -2.371421E-001 -3.371547E+001 -3.304369E+001 -9.269815E+000
  32.0000     -3.330692E+001 -1.022208E+001 -2.380680E-001 -3.479753E+001 -2.399432E-001 -3.479595E+001 -3.303739E+001 -1.122990E+001
  33.0000     -3.329433E+001 -1.229973E+001 -2.401429E-001 -3.588338E+001 -2.424543E-001 -3.587164E+001 -3.298502E+001 -1.322237E+001
  34.0000     -3.326995E+001 -1.415299E+001 -2.448256E-001 -3.696985E+001 -2.454362E-001 -3.695261E+001 -3.297840E+001 -1.510710E+001
  35.0000     -3.329043E+001 -1.659988E+001 -2.478885E-001 -3.804163E+001 -2.480957E-001 -3.804684E+001 -3.296011E+001 -1.737070E+001
  36.0000     -3.329945E+001 -1.838365E+001 -2.485452E-001 -3.912622E+001 -2.505483E-001 -3.913329E+001 -3.296046E+001 -1.925185E+001
  37.0000     -3.334687E+001 -2.033546E+001 -2.526520E-001 -4.022491E+001 -2.533562E-001 -4.021818E+001 -3.296891E+001 -2.129155E+001
  38.0000     -3.337728E+001 -2.257051E+001 -2.550051E-001 -4.130703E+001 -2.553259E-001 -4.130157E+001 -3.297102E+001 -2.342414E+001
  39.0000     -3.336656E+001 -2.509381E+001 -2.576410E-001 -4.238884E+001 -2.582413E-001 -4.239378E+001 -3.297464E+001 -2.574086E+001
  40.0000     -3.340734E+001 -2.745955E+001 -2.589666E-001 -4.348320E+001 -2.624401E-001 -4.348249E+001 -3.299099E+001 -2.816213E+001
  41.0000     -3.341751E+001 -2.970551E+001 -2.630059E-001 -4.457295E+001 -2.643555E-001 -4.456752E+001 -3.300997E+001 -3.041297E+001
  42.0000     -3.348832E+001 -3.232174E+001 -2.661740E-001 -4.566193E+001 -2.685121E-001 -4.565445E+001 -3.304446E+001 -3.307035E+001
  43.0000     -3.353031E+001 -3.498288E+001 -2.683946E-001 -4.675342E+001 -2.706027E-001 -4.675008E+001 -3.305990E+001 -3.579474E+001
  44.0000     -3.353862E+001 -3.782100E+001 -2.716396E-001 -4.785408E+001 -2.737464E-001 -4.784053E+001 -3.306308E+001 -3.857687E+001
  45.0000     -3.357891E+001 -4.048880E+001 -2.748086E-001 -4.893201E+001 -2.762644E-001 -4.893999E+001 -3.309716E+001 -4.118943E+001
  46.0000     -3.365891E+001 -4.345858E+001 -2.770613E-001 -5.002748E+001 -2.791130E-001 -5.002353E+001 -3.314195E+001 -4.396444E+001
  47.0000     -3.361014E+001 -4.656812E+001 -2.777788E-001 -5.112967E+001 -2.833556E-001 -5.112286E+001 -3.311615E+001 -4.680523E+001
  48.0000     -3.363152E+001 -4.945975E+001 -2.826537E-001 -5.222119E+001 -2.831996E-001 -5.221482E+001 -3.315809E+001 -4.999142E+001
  49.0000     -3.372090E+001 -5.257246E+001 -2.861461E-001 -5.331956E+001 -2.879199E-001 -5.331448E+001 -3.320013E+001 -5.308106E+001
  50.0000     -3.371261E+001 -5.595670E+001 -2.901843E-001 -5.441968E+001 -2.894685E-001 -5.440999E+001 -3.312742E+001 -5.624865E+001
  51.0000     -3.371934E+001 -5.909032E+001 -2.912421E-001 -5.550608E+001 -2.916049E-001 -5.551494E+001 -3.310813E+001 -5.936808E+001
  52.0000     -3.369695E+001 -6.271365E+001 -2.934648E-001 -5.661477E+001 -2.957089E-001 -5.661729E+001 -3.308024E+001 -6.296442E+001
  53.0000     -3.368182E+001 -6.630649E+001 -2.957341E-001 -5.772482E+001 -2.982001E-001 -5.771045E+001 -3.303436E+001 -6.593380E+001
  54.0000     -3.362824E+001 -6.980076E+001 -3.000549E-001 -5.882259E+001 -3.008126E-001 -5.881997E+001 -3.303419E+001 -6.954503E+001
  55.0000     -3.358611E+001 -7.346580E+001 -3.029802E-001 -5.992918E+001 -3.050300E-001 -5.991829E+001 -3.294346E+001 -7.298328E+001
  56.0000     -3.354575E+001 -7.739771E+001 -3.060532E-001 -6.103238E+001 -3.069374E-001 -6.102743E+001 -3.288700E+001 -7.656912E+001
  57.0000     -3.343724E+001 -8.096790E+001 -3.105493E-001 -6.214628E+001 -3.097363E-001 -6.213950E+001 -3.278513E+001 -7.996151E+001
  58.0000     -3.332015E+001 -8.473222E+001 -3.121409E-001 -6.325431E+001 -3.131858E-001 -6.324030E+001 -3.268615E+001 -8.372028E+001
  59.0000     -3.322369E+001 -8.840312E+001 -3.153766E-001 -6.435394E+001 -3.153733E-001 -6.435016E+001 -3.256384E+001 -8.704608E+001
  60.0000     -3.309559E+001 -9.217738E+001 -3.169164E-001 -6.546975E+001 -3.202324E-001 -6.546139E+001 -3.245999E+001 -9.065370E+001
  61.0000     -3.290663E+001 -9.599353E+001 -3.197136E-001 -6.658681E+001 -3.216937E-001 -6.657607E+001 -3.227920E+001 -9.430404E+001
  62.0000     -3.276384E+001 -9.980351E+001 -3.244027E-001 -6.769802E+001 -3.252446E-001 -6.770638E+001 -3.212074E+001 -9.798099E+001
  63.0000     -3.257357E+001 -1.034220E+002 -3.275507E-001 -6.882073E+001 -3.273788E-001 -6.881062E+001 -3.195316E+001 -1.014170E+002
  64.0000     -3.235853E+001 -1.071952E+002 -3.304987E-001 -6.992597E+001 -3.307930E-001 -6.994344E+001 -3.177493E+001 -1.049185E+002
  65.0000     -3.215657E+001 -1.107443E+002 -3.324488E-001 -7.106001E+001 -3.356878E-001 -7.105282E+001 -3.155674E+001 -1.083251E+002
  66.0000     -3.191890E+001 -1.142853E+002 -3.355914E-001 -7.218310E+001 -3.375345E-001 -7.217442E+001 -3.134487E+001 -1.117031E+002
  67.0000     -3.168858E+001 -1.177589E+002 -3.394523E-001 -7.329848E+001 -3.397624E-001 -7.330949E+001 -3.112894E+001 -1.150860E+002
  68.0000     -3.142385E+001 -1.211992E+002 -3.433992E-001 -7.442786E+001 -3.442678E-001 -7.442633E+001 -3.087473E+001 -1.182831E+002
  69.0000     -3.114273E+001 -1.243853E+002 -3.454151E-001 -7.555584E+001 -3.471874E-001 -7.555932E+001 -3.064342E+001 -1.214717E+002
  70.0000     -3.091934E+001 -1.277749E+002 -3.492012E-001 -7.668846E+001 -3.517981E-001 -7.667459E+001 -3.039840E+001 -1.245002E+002
  71.0000     -3.061209E+001 -1.307113E+002 -3.519385E-001 -7.782185E+001 -3.541143E-001 -7.781738E+001 -3.011780E+001 -1.276197E+002
  72.0000     -3.033941E+001 -1.339653E+002 -3.543815E-001 -7.894598E+001 -3.584251E-001 -7.894949E+001 -2.990035E+001 -1.307935E+002
  73.0000     -3.004896E+001 -1.367856E+002 -3.592172E-001 -8.009312E+001 -3.611699E-001 -8.008148E+001 -2.961597E+001 -1.335608E+002
  74.0000     -2.980386E+001 -1.396583E+002 -3.619335E-001 -8.122297E+001 -3.647229E-001 -8.121787E+001 -2.934942E+001 -1.363322E+002
  75.0000     -2.950334E+001 -1.424706E+002 -3.665908E-001 -8.236913E+001 -3.681157E-001 -8.235427E+001 -2.909838E+001 -1.392975E+002
  76.0000     -2.922424E+001 -1.452293E+002 -3.687384E-001 -8.350098E+001 -3.720285E-001 -8.350202E+001 -2.885069E+001 -1.418237E+002
  77.0000     -2.894389E+001 -1.478453E+002 -3.739521E-001 -8.464605E+001 -3.747562E-001 -8.464912E+001 -2.856798E+001 -1.444580E+002
  78.0000     -2.865826E+001 -1.504651E+002 -3.775705E-001 -8.579596E+001 -3.783643E-001 -8.577913E+001 -2.830025E+001 -1.470671E+002
  79.0000     -2.836808E+001 -1.528640E+002 -3.806675E-001 -8.693488E+001 -3.822143E-001 -8.693961E+001 -2.804704E+001 -1.494762E+002
  80.0000     -2.811256E+001 -1.554711E+002 -3.838406E-001 -8.809053E+001 -3.855829E-001 -8.808372E+001 -2.778061E+001 -1.520712E+002
  81.0000     -2.782550E+001 -1.577372E+002 -3.879562E-001 -8.923172E+001 -3.884925E-001 -8.924377E+001 -2.751580E+001 -1.544521E+002
  82.0000     -2.757004E+001 -1.602129E+002 -3.926747E-001 -9.039594E+001 -3.943330E-001 -9.039990E+001 -2.727504E+001 -1.567229E+002
  83.0000     -2.730830E+001 -1.623310E+002 -3.962184E-001 -9.155141E+001 -3.964772E-001 -9.155618E+001 -2.701894E+001 -1.588845E+002
  84.0000     -2.705074E+001 -1.645530E+002 -3.993262E-001 -9.271098E+001 -4.007486E-001 -9.270370E+001 -2.677518E+001 -1.611199E+002
  85.0000     -2.678890E+001 -1.666891E+002 -4.035124E-001 -9.386908E+001 -4.049086E-001 -9.385741E+001 -2.653564E+001 -1.634146E+002
  86.0000     -2.655649E+001 -1.689138E+002 -4.071394E-001 -9.503455E+001 -4.086599E-001 -9.503810E+001 -2.629420E+001 -1.654944E+002
  87.0000     -2.630049E+001 -1.709423E+002 -4.105860E-001 -9.619022E+001 -4.118448E-001 -9.619756E+001 -2.606347E+001 -1.675249E+002
  88.0000     -2.606836E+001 -1.729219E+002 -4.148991E-001 -9.736271E+001 -4.158745E-001 -9.735816E+001 -2.584868E+001 -1.695673E+002
  89.0000     -2.582322E+001 -1.748346E+002 -4.192790E-001 -9.854103E+001 -4.202629E-001 -9.853011E+001 -2.559391E+001 -1.715485E+002
  90.0000     -2.560896E+001 -1.768346E+002 -4.224268E-001 -9.970506E+001 -4.237458E-001 -9.971684E+001 -2.539792E+001 -1.736000E+002
  91.0000     -2.537849E+001 -1.788717E+002 -4.266582E-001 -1.008897E+002 -4.276923E-001 -1.008812E+002 -2.517728E+001 -1.755116E+002
  92.0000     -2.517245E+001  1.792858E+002 -4.303463E-001 -1.020671E+002 -4.326778E-001 -1.020665E+002 -2.497106E+001 -1.774723E+002
  93.0000     -2.495100E+001  1.774840E+002 -4.344431E-001 -1.032363E+002 -4.375647E-001 -1.032402E+002 -2.475986E+001 -1.792702E+002
  94.0000     -2.474384E+001  1.755712E+002 -4.394882E-001 -1.044304E+002 -4.417042E-001 -1.044238E+002 -2.455945E+001  1.788601E+002
  95.0000     -2.455443E+001  1.737370E+002 -4.438342E-001 -1.056088E+002 -4.445069E-001 -1.056038E+002 -2.437443E+001  1.771322E+002
  96.0000     -2.434803E+001  1.719870E+002 -4.475726E-001 -1.068037E+002 -4.483877E-001 -1.068031E+002 -2.418786E+001  1.753068E+002
  97.0000     -2.416842E+001  1.701749E+002 -4.525228E-001 -1.079971E+002 -4.534020E-001 -1.079813E+002 -2.400645E+001  1.735424E+002
  98.0000     -2.398725E+001  1.684246E+002 -4.577333E-001 -1.091843E+002 -4.581481E-001 -1.091894E+002 -2.383121E+001  1.718134E+002
  99.0000     -2.380617E+001  1.667990E+002 -4.608988E-001 -1.103906E+002 -4.610977E-001 -1.103714E+002 -2.365353E+001  1.700673E+002
 100.0000     -2.362977E+001  1.650692E+002 -4.657781E-001 -1.115852E+002 -4.658236E-001 -1.115813E+002 -2.349089E+001  1.683350E+002
 101.0000     -2.346869E+001  1.633654E+002 -4.693856E-001 -1.127877E+002 -4.711041E-001 -1.127778E+002 -2.331885E+001  1.666764E+002
 102.0000     -2.330514E+001  1.617186E+002 -4.727190E-001 -1.139885E+002 -4.740385E-001 -1.139948E+002 -2.317348E+001  1.649857E+002
 103.0000     -2.315405E+001  1.600500E+002 -4.783463E-001 -1.152082E+002 -4.786738E-001 -1.151999E+002 -2.301913E+001  1.633470E+002
 104.0000     -2.300152E+001  1.584657E+002 -4.831017E-001 -1.164121E+002 -4.835694E-001 -1.164156E+002 -2.287290E+001  1.617662E+002
 105.0000     -2.284910E+001  1.568354E+002 -4.858896E-001 -1.176340E+002 -4.875640E-001 -1.176202E+002 -2.274380E+001  1.601054E+002
 106.0000     -2.271861E+001  1.551921E+002 -4.917819E-001 -1.188549E+002 -4.928784E-001 -1.188406E+002 -2.261386E+001  1.584733E+002
 107.0000     -2.259539E+001  1.536042E+002 -4.962792E-001 -1.200742E+002 -4.955741E-001 -1.200630E+002 -2.247371E+001  1.568378E+002
 108.0000     -2.246362E+001  1.520308E+002 -5.009694E-001 -1.213023E+002 -5.007564E-001 -1.212901E+002 -2.235384E+001  1.551852E+002
 109.0000     -2.233088E+001  1.504645E+002 -5.028968E-001 -1.225281E+002 -5.052159E-001 -1.225211E+002 -2.223474E+001  1.537641E+002
 110.0000     -2.222504E+001  1.488532E+002 -5.081156E-001 -1.237494E+002 -5.099242E-001 -1.237584E+002 -2.213041E+001  1.520795E+002
 111.0000     -2.211025E+001  1.472965E+002 -5.140443E-001 -1.249956E+002 -5.141933E-001 -1.249890E+002 -2.202379E+001  1.505223E+002
 112.0000     -2.201780E+001  1.457320E+002 -5.168560E-001 -1.262266E+002 -5.194706E-001 -1.262336E+002 -2.193051E+001  1.490671E+002
 113.0000     -2.192016E+001  1.442211E+002 -5.204330E-001 -1.274686E+002 -5.227616E-001 -1.274739E+002 -2.182983E+001  1.474615E+002
 114.0000     -2.182133E+001  1.426187E+002 -5.248982E-001 -1.287156E+002 -5.261766E-001 -1.287190E+002 -2.175232E+001  1.458950E+002
 115.0000     -2.173985E+001  1.410913E+002 -5.293596E-001 -1.299708E+002 -5.291336E-001 -1.299757E+002 -2.166610E+001  1.443744E+002
 116.0000     -2.166701E+001  1.395695E+002 -5.335448E-001 -1.312207E+002 -5.358131E-001 -1.312283E+002 -2.159225E+001  1.428572E+002
 117.0000     -2.159179E+001  1.379808E+002 -5.390525E-001 -1.324915E+002 -5.395909E-001 -1.324837E+002 -2.151998E+001  1.413580E+002
 118.0000     -2.152178E+001  1.364797E+002 -5.429640E-001 -1.337423E+002 -5.426860E-001 -1.337448E+002 -2.145620E+001  1.397920E+002
 119.0000     -2.146129E+001  1.349422E+002 -5.463316E-001 -1.350014E+002 -5.478324E-001 -1.350141E+002 -2.139679E+001  1.383535E+002
 120.0000     -2.141364E+001  1.334111E+002 -5.496339E-001 -1.362855E+002 -5.525389E-001 -1.362860E+002 -2.134830E+001  1.368183E+002
 121.0000     -2.136907E+001  1.319296E+002 -5.541928E-001 -1.375528E+002 -5.562364E-001 -1.375560E+002 -2.130245E+001  1.352917E+002
 122.0000     -2.132673E+001  1.303729E+002 -5.585168E-001 -1.388435E+002 -5.586762E-001 -1.388286E+002 -2.126986E+001  1.337919E+002
 123.0000     -2.129439E+001  1.288428E+002 -5.610440E-001 -1.401208E+002 -5.632537E-001 -1.401261E+002 -2.123794E+001  1.322370E+002
 124.0000     -2.127112E+001  1.273452E+002 -5.652337E-001 -1.414114E+002 -5.677596E-001 -1.414010E+002 -2.121197E+001  1.307770E+002
 125.0000     -2.125182E+001  1.257925E+002 -5.701135E-001 -1.427188E+002 -5.714327E-001 -1.427038E+002 -2.119798E+001  1.292995E+002
 126.0000     -2.124938E+001  1.242249E+002 -5.741891E-001 -1.440033E+002 -5.742143E-001 -1.440132E+002 -2.119009E+001  1.277945E+002
 127.0000     -2.124150E+001  1.227406E+002 -5.772018E-001 -1.453215E+002 -5.789946E-001 -1.453006E+002 -2.119293E+001  1.262713E+002
 128.0000     -2.123881E+001  1.211795E+002 -5.802330E-001 -1.466202E+002 -5.834860E-001 -1.466246E+002 -2.119715E+001  1.247744E+002
 129.0000     -2.124346E+001  1.196373E+002 -5.848014E-001 -1.479403E+002 -5.863944E-001 -1.479267E+002 -2.121473E+001  1.232803E+002
 130.0000     -2.127392E+001  1.181311E+002 -5.882272E-001 -1.492500E+002 -5.905868E-001 -1.492484E+002 -2.123556E+001  1.217269E+002
 131.0000     -2.129962E+001  1.165380E+002 -5.924913E-001 -1.505834E+002 -5.922175E-001 -1.505687E+002 -2.126631E+001  1.202229E+002
 132.0000     -2.133765E+001  1.150302E+002 -5.944936E-001 -1.519080E+002 -5.969543E-001 -1.519079E+002 -2.130435E+001  1.186886E+002
 133.0000     -2.139787E+001  1.134915E+002 -6.004751E-001 -1.532441E+002 -6.001294E-001 -1.532414E+002 -2.134851E+001  1.172654E+002
 134.0000     -2.144953E+001  1.119129E+002 -6.021104E-001 -1.545789E+002 -6.042062E-001 -1.545904E+002 -2.141158E+001  1.156496E+002
 135.0000     -2.151213E+001  1.103001E+002 -6.052292E-001 -1.559524E+002 -6.075846E-001 -1.559308E+002 -2.147545E+001  1.141559E+002
 136.0000     -2.158183E+001  1.087404E+002 -6.084392E-001 -1.572955E+002 -6.099089E-001 -1.572811E+002 -2.156699E+001  1.126172E+002
 137.0000     -2.167966E+001  1.072080E+002 -6.107904E-001 -1.586564E+002 -6.128927E-001 -1.586503E+002 -2.165111E+001  1.111047E+002
 138.0000     -2.177524E+001  1.055820E+002 -6.154923E-001 -1.600184E+002 -6.168534E-001 -1.600166E+002 -2.176195E+001  1.095765E+002
 139.0000     -2.189551E+001  1.039601E+002 -6.178914E-001 -1.614027E+002 -6.183023E-001 -1.613990E+002 -2.187038E+001  1.079980E+002
 140.0000     -2.201109E+001  1.023312E+002 -6.220427E-001 -1.627864E+002 -6.220486E-001 -1.627726E+002 -2.199339E+001  1.064286E+002
 141.0000     -2.214432E+001  1.007225E+002 -6.247817E-001 -1.641769E+002 -6.265594E-001 -1.641690E+002 -2.213449E+001  1.048827E+002
