! Mini-Circuits								
! S2P DATA File Format								
! Type:LOW PASS FILTER								
! Model: ZX75LP-470+								
! All S Parameters are in dB deg format								
! TEST CONDITIONS: INPUT POWER = 0 dBm @ Temperature = -40 deg C								
! 401 Frequency points								
!								
# MHz S DB R 50								
!FREQ	S11	S11_P	S21	S21_P	S12	S12_P	S22	S22_P
0.50	-50.39	-1.41	-0.03	-0.31	-0.02	-0.28	-50.35	-0.63
1.00	-50.03	1.06	-0.03	-0.61	-0.03	-0.54	-49.91	0.56
2.00	-49.72	-0.14	-0.03	-1.17	-0.03	-1.16	-49.65	-0.80
4.00	-49.13	-2.98	-0.02	-2.45	-0.03	-2.40	-49.31	-4.28
6.00	-48.51	-5.76	-0.03	-3.54	-0.03	-3.61	-48.68	-7.27
8.00	-47.85	-9.51	-0.04	-4.74	-0.04	-4.74	-48.07	-11.37
10.00	-47.13	-12.56	-0.04	-5.88	-0.04	-5.85	-47.43	-15.05
12.00	-46.45	-16.90	-0.04	-7.01	-0.04	-6.99	-46.72	-19.66
14.00	-45.85	-20.21	-0.05	-8.15	-0.04	-8.17	-46.18	-23.92
16.00	-45.25	-22.99	-0.05	-9.24	-0.05	-9.24	-45.68	-26.53
18.00	-44.57	-27.50	-0.05	-10.38	-0.05	-10.40	-45.06	-31.55
20.00	-44.02	-30.22	-0.05	-11.54	-0.05	-11.55	-44.49	-34.55
22.00	-43.38	-34.29	-0.05	-12.64	-0.05	-12.66	-43.92	-38.53
24.00	-42.83	-37.35	-0.06	-13.81	-0.06	-13.75	-43.31	-41.95
26.00	-42.51	-40.09	-0.05	-14.93	-0.06	-14.93	-42.88	-45.31
28.00	-42.02	-42.29	-0.06	-16.08	-0.06	-16.08	-42.44	-47.88
30.00	-41.50	-44.94	-0.07	-17.18	-0.06	-17.22	-41.90	-50.67
32.00	-41.12	-47.96	-0.07	-18.34	-0.07	-18.36	-41.51	-53.55
34.00	-40.67	-50.65	-0.07	-19.51	-0.07	-19.49	-41.21	-55.57
36.00	-40.37	-52.72	-0.07	-20.64	-0.07	-20.61	-40.82	-57.78
38.00	-40.06	-54.54	-0.07	-21.79	-0.07	-21.78	-40.38	-60.54
40.00	-39.69	-56.23	-0.08	-22.93	-0.07	-22.94	-40.05	-62.16
42.00	-39.47	-58.75	-0.08	-24.01	-0.08	-24.02	-39.76	-64.86
44.00	-39.18	-60.76	-0.07	-25.17	-0.07	-25.18	-39.38	-66.39
46.00	-38.89	-62.66	-0.08	-26.35	-0.08	-26.29	-39.16	-68.32
48.00	-38.68	-64.29	-0.08	-27.46	-0.08	-27.46	-38.83	-70.05
50.00	-38.44	-66.06	-0.08	-28.58	-0.08	-28.57	-38.62	-72.08
52.00	-38.23	-67.76	-0.08	-29.69	-0.08	-29.73	-38.32	-73.56
54.00	-38.03	-69.38	-0.08	-30.85	-0.09	-30.88	-38.10	-75.02
56.00	-37.89	-71.17	-0.09	-32.00	-0.08	-31.99	-37.81	-76.75
58.00	-37.65	-72.84	-0.09	-33.13	-0.09	-33.14	-37.60	-78.16
60.00	-37.46	-74.58	-0.09	-34.27	-0.08	-34.30	-37.36	-80.26
62.00	-37.28	-76.17	-0.10	-35.41	-0.09	-35.42	-37.16	-81.55
64.00	-37.12	-77.75	-0.09	-36.57	-0.09	-36.59	-36.92	-82.56
66.00	-37.00	-79.27	-0.09	-37.71	-0.09	-37.71	-36.76	-84.46
68.00	-36.84	-81.35	-0.10	-38.83	-0.10	-38.87	-36.54	-85.88
70.00	-36.69	-83.02	-0.10	-39.97	-0.10	-40.03	-36.41	-87.42
72.00	-36.49	-84.45	-0.10	-41.14	-0.10	-41.16	-36.18	-88.96
74.00	-36.32	-86.64	-0.11	-42.30	-0.09	-42.31	-36.03	-90.38
76.00	-36.20	-87.75	-0.11	-43.39	-0.09	-43.44	-35.86	-91.75
78.00	-36.08	-89.55	-0.11	-44.57	-0.10	-44.59	-35.67	-93.55
80.00	-35.92	-91.53	-0.11	-45.70	-0.11	-45.73	-35.51	-95.00
82.00	-35.76	-92.90	-0.11	-46.87	-0.11	-46.90	-35.32	-96.73
84.00	-35.59	-94.48	-0.11	-48.02	-0.11	-48.04	-35.17	-98.25
86.00	-35.41	-96.66	-0.11	-49.14	-0.11	-49.21	-35.04	-99.95
88.00	-35.29	-97.83	-0.12	-50.28	-0.10	-50.34	-34.85	-102.07
90.00	-35.09	-99.71	-0.12	-51.45	-0.11	-51.45	-34.73	-103.28
92.00	-34.98	-101.26	-0.12	-52.61	-0.11	-52.63	-34.56	-105.14
94.00	-34.72	-102.91	-0.12	-53.72	-0.11	-53.77	-34.38	-106.81
96.00	-34.62	-104.99	-0.12	-54.91	-0.12	-54.96	-34.25	-108.55
98.00	-34.48	-106.81	-0.12	-56.08	-0.12	-56.12	-34.15	-110.36
100.00	-34.24	-108.43	-0.12	-57.21	-0.12	-57.23	-33.97	-112.20
102.00	-34.09	-110.02	-0.13	-58.35	-0.12	-58.41	-33.79	-113.77
104.00	-33.89	-111.70	-0.13	-59.55	-0.12	-59.55	-33.65	-115.70
106.00	-33.71	-113.54	-0.13	-60.66	-0.12	-60.72	-33.46	-117.50
108.00	-33.53	-115.14	-0.13	-61.83	-0.12	-61.89	-33.36	-119.48
110.00	-33.33	-116.91	-0.13	-63.02	-0.13	-63.04	-33.16	-121.11
112.00	-33.14	-118.69	-0.13	-64.17	-0.13	-64.18	-33.01	-123.29
114.00	-32.96	-120.66	-0.13	-65.32	-0.13	-65.38	-32.82	-125.30
116.00	-32.80	-122.27	-0.14	-66.50	-0.13	-66.54	-32.63	-126.97
118.00	-32.57	-124.06	-0.14	-67.65	-0.13	-67.70	-32.48	-128.80
120.00	-32.35	-125.93	-0.14	-68.83	-0.14	-68.85	-32.28	-130.88
122.00	-32.17	-127.80	-0.14	-69.99	-0.14	-70.02	-32.08	-132.69
124.00	-31.95	-129.52	-0.14	-71.18	-0.14	-71.20	-31.89	-134.38
126.00	-31.74	-131.44	-0.14	-72.31	-0.14	-72.33	-31.67	-136.17
128.00	-31.57	-133.09	-0.15	-73.50	-0.14	-73.49	-31.47	-138.20
130.00	-31.36	-135.01	-0.14	-74.65	-0.15	-74.66	-31.29	-140.12
132.00	-31.16	-136.67	-0.14	-75.80	-0.14	-75.88	-31.04	-142.01
134.00	-30.95	-138.85	-0.15	-77.03	-0.14	-77.02	-30.85	-143.68
136.00	-30.72	-140.71	-0.15	-78.18	-0.15	-78.23	-30.65	-145.56
138.00	-30.49	-142.53	-0.15	-79.36	-0.15	-79.39	-30.39	-147.12
140.00	-30.30	-144.55	-0.15	-80.53	-0.15	-80.57	-30.14	-149.01
142.00	-30.05	-146.38	-0.15	-81.73	-0.14	-81.78	-29.92	-150.66
144.00	-29.83	-148.41	-0.15	-82.93	-0.15	-82.95	-29.68	-152.48
146.00	-29.60	-150.20	-0.16	-84.11	-0.15	-84.16	-29.46	-154.18
148.00	-29.37	-152.09	-0.15	-85.29	-0.15	-85.29	-29.21	-155.68
150.00	-29.14	-153.96	-0.16	-86.46	-0.16	-86.53	-28.94	-157.41
152.00	-28.91	-155.88	-0.16	-87.72	-0.16	-87.64	-28.70	-159.19
154.00	-28.67	-157.88	-0.16	-88.88	-0.15	-88.88	-28.44	-160.59
156.00	-28.42	-159.84	-0.17	-90.07	-0.16	-90.10	-28.20	-162.38
158.00	-28.17	-161.63	-0.17	-91.27	-0.16	-91.30	-27.94	-164.00
160.00	-27.93	-163.51	-0.17	-92.49	-0.16	-92.47	-27.67	-165.66
162.00	-27.66	-165.34	-0.17	-93.68	-0.16	-93.68	-27.42	-167.34
164.00	-27.40	-167.20	-0.17	-94.89	-0.17	-94.91	-27.17	-168.90
166.00	-27.17	-168.98	-0.17	-96.10	-0.17	-96.10	-26.91	-170.48
168.00	-26.91	-170.77	-0.17	-97.30	-0.17	-97.32	-26.65	-172.01
170.00	-26.64	-172.59	-0.18	-98.50	-0.17	-98.54	-26.40	-173.72
172.00	-26.39	-174.25	-0.18	-99.73	-0.18	-99.71	-26.14	-175.20
174.00	-26.13	-175.96	-0.18	-100.94	-0.18	-100.96	-25.90	-176.83
176.00	-25.89	-177.73	-0.18	-102.16	-0.18	-102.18	-25.63	-178.30
178.00	-25.61	-179.23	-0.19	-103.31	-0.18	-103.37	-25.36	-179.82
180.00	-25.35	179.05	-0.19	-104.55	-0.19	-104.58	-25.12	178.59
182.00	-25.11	177.34	-0.19	-105.82	-0.19	-105.81	-24.88	177.00
184.00	-24.86	175.78	-0.20	-107.00	-0.19	-107.04	-24.65	175.51
186.00	-24.60	174.23	-0.20	-108.27	-0.20	-108.27	-24.40	173.93
188.00	-24.36	172.71	-0.20	-109.46	-0.20	-109.49	-24.16	172.37
190.00	-24.12	171.09	-0.21	-110.71	-0.21	-110.74	-23.94	170.78
192.00	-23.87	169.71	-0.20	-111.94	-0.21	-111.96	-23.71	169.26
194.00	-23.64	168.21	-0.21	-113.14	-0.21	-113.20	-23.49	167.73
196.00	-23.39	166.77	-0.22	-114.38	-0.21	-114.40	-23.23	166.24
198.00	-23.17	165.29	-0.21	-115.64	-0.22	-115.67	-23.03	164.67
200.00	-22.94	163.83	-0.22	-116.86	-0.22	-116.89	-22.81	163.14
202.00	-22.72	162.41	-0.22	-118.08	-0.22	-118.14	-22.61	161.63
204.00	-22.50	160.99	-0.22	-119.34	-0.22	-119.38	-22.39	159.90
206.00	-22.26	159.63	-0.22	-120.59	-0.23	-120.60	-22.18	158.57
208.00	-22.08	158.34	-0.23	-121.80	-0.23	-121.83	-21.99	157.03
210.00	-21.86	156.97	-0.23	-123.04	-0.23	-123.09	-21.79	155.55
212.00	-21.66	155.52	-0.23	-124.34	-0.24	-124.35	-21.59	154.05
214.00	-21.46	154.25	-0.24	-125.59	-0.24	-125.58	-21.40	152.59
216.00	-21.27	152.81	-0.24	-126.84	-0.23	-126.87	-21.21	151.01
218.00	-21.07	151.44	-0.25	-128.09	-0.25	-128.09	-21.04	149.48
220.00	-20.89	150.06	-0.24	-129.37	-0.24	-129.39	-20.87	147.98
222.00	-20.73	148.85	-0.24	-130.59	-0.24	-130.63	-20.70	146.47
224.00	-20.54	147.55	-0.25	-131.88	-0.25	-131.89	-20.52	145.13
226.00	-20.38	146.16	-0.25	-133.18	-0.25	-133.20	-20.34	143.68
228.00	-20.21	144.88	-0.25	-134.44	-0.25	-134.45	-20.20	142.11
230.00	-20.06	143.63	-0.25	-135.73	-0.25	-135.76	-20.04	140.73
232.00	-19.90	142.31	-0.25	-137.02	-0.26	-137.06	-19.90	139.22
234.00	-19.75	140.94	-0.25	-138.31	-0.25	-138.34	-19.75	137.85
236.00	-19.61	139.69	-0.26	-139.63	-0.26	-139.63	-19.60	136.48
238.00	-19.47	138.31	-0.26	-140.93	-0.26	-140.90	-19.45	135.05
240.00	-19.32	137.13	-0.26	-142.19	-0.26	-142.19	-19.33	133.59
242.00	-19.20	135.81	-0.26	-143.50	-0.27	-143.52	-19.20	132.22
244.00	-19.07	134.57	-0.27	-144.81	-0.27	-144.84	-19.08	130.88
246.00	-18.95	133.13	-0.27	-146.13	-0.28	-146.16	-18.96	129.36
248.00	-18.82	131.91	-0.27	-147.41	-0.27	-147.42	-18.83	128.02
250.00	-18.71	130.60	-0.28	-148.73	-0.28	-148.73	-18.72	126.64
252.00	-18.60	129.33	-0.28	-150.09	-0.28	-150.03	-18.62	125.32
254.00	-18.52	127.92	-0.29	-151.39	-0.29	-151.38	-18.53	123.79
256.00	-18.42	126.55	-0.29	-152.70	-0.29	-152.71	-18.43	122.48
258.00	-18.32	125.27	-0.30	-154.07	-0.30	-154.05	-18.34	121.07
260.00	-18.24	124.00	-0.31	-155.34	-0.30	-155.37	-18.26	119.72
262.00	-18.17	122.68	-0.31	-156.72	-0.31	-156.71	-18.18	118.27
264.00	-18.09	121.41	-0.31	-158.01	-0.31	-158.02	-18.13	116.89
266.00	-18.03	120.11	-0.31	-159.34	-0.32	-159.37	-18.06	115.41
268.00	-17.95	118.76	-0.32	-160.69	-0.32	-160.73	-17.99	114.08
270.00	-17.89	117.51	-0.32	-162.02	-0.31	-162.03	-17.93	112.72
272.00	-17.85	116.18	-0.33	-163.38	-0.32	-163.38	-17.90	111.38
274.00	-17.81	114.93	-0.33	-164.70	-0.33	-164.70	-17.85	109.97
276.00	-17.76	113.59	-0.33	-166.02	-0.32	-166.10	-17.81	108.50
278.00	-17.73	112.31	-0.33	-167.40	-0.33	-167.42	-17.79	107.09
280.00	-17.72	111.00	-0.33	-168.79	-0.33	-168.77	-17.75	105.71
282.00	-17.69	109.77	-0.34	-170.13	-0.34	-170.13	-17.74	104.21
284.00	-17.67	108.47	-0.34	-171.47	-0.34	-171.51	-17.72	102.88
286.00	-17.67	107.15	-0.34	-172.85	-0.34	-172.88	-17.71	101.39
288.00	-17.67	105.91	-0.34	-174.20	-0.34	-174.25	-17.73	99.91
290.00	-17.67	104.68	-0.34	-175.57	-0.34	-175.64	-17.74	98.47
292.00	-17.69	103.41	-0.34	-176.96	-0.34	-177.01	-17.76	97.04
294.00	-17.70	102.13	-0.34	-178.34	-0.34	-178.38	-17.79	95.50
296.00	-17.73	100.75	-0.35	-179.74	-0.35	-179.77	-17.81	94.13
298.00	-17.77	99.44	-0.35	178.84	-0.34	178.88	-17.85	92.55
300.00	-17.80	98.27	-0.35	177.41	-0.35	177.40	-17.89	91.01
302.00	-17.87	96.95	-0.35	176.01	-0.34	176.00	-17.96	89.51
304.00	-17.92	95.77	-0.35	174.59	-0.34	174.59	-18.02	87.97
306.00	-18.00	94.50	-0.35	173.15	-0.34	173.14	-18.10	86.42
308.00	-18.07	93.28	-0.35	171.75	-0.34	171.71	-18.17	84.92
310.00	-18.16	92.04	-0.35	170.28	-0.34	170.28	-18.26	83.39
312.00	-18.25	90.89	-0.34	168.86	-0.34	168.79	-18.36	81.82
314.00	-18.36	89.55	-0.35	167.35	-0.35	167.38	-18.48	80.28
316.00	-18.48	88.47	-0.35	165.90	-0.34	165.88	-18.60	78.53
318.00	-18.60	87.24	-0.35	164.42	-0.34	164.41	-18.73	76.93
320.00	-18.74	86.07	-0.35	162.94	-0.35	162.91	-18.87	75.24
322.00	-18.88	84.86	-0.35	161.51	-0.34	161.48	-19.03	73.59
324.00	-19.05	83.77	-0.35	159.98	-0.35	159.95	-19.19	71.92
326.00	-19.21	82.52	-0.35	158.47	-0.35	158.48	-19.39	70.21
328.00	-19.39	81.39	-0.36	156.95	-0.35	156.95	-19.55	68.45
330.00	-19.58	80.30	-0.35	155.45	-0.34	155.41	-19.76	66.70
332.00	-19.78	79.21	-0.35	153.93	-0.35	153.92	-19.98	64.89
334.00	-20.00	78.13	-0.36	152.40	-0.35	152.41	-20.21	63.09
336.00	-20.25	77.10	-0.35	150.88	-0.35	150.90	-20.47	61.17
338.00	-20.49	76.06	-0.36	149.36	-0.35	149.33	-20.73	59.28
340.00	-20.79	74.95	-0.36	147.79	-0.36	147.80	-21.02	57.34
342.00	-21.05	74.20	-0.35	146.22	-0.35	146.20	-21.33	55.23
344.00	-21.39	73.13	-0.36	144.66	-0.36	144.65	-21.66	53.23
346.00	-21.70	72.43	-0.36	143.08	-0.36	143.06	-22.01	51.08
348.00	-22.07	71.74	-0.36	141.49	-0.36	141.51	-22.39	48.85
350.00	-22.42	71.00	-0.35	139.92	-0.36	139.88	-22.79	46.43
352.00	-22.85	70.43	-0.36	138.30	-0.36	138.30	-23.23	44.01
354.00	-23.28	69.97	-0.36	136.70	-0.36	136.68	-23.70	41.59
356.00	-23.77	69.57	-0.36	135.10	-0.36	135.05	-24.21	38.88
358.00	-24.25	69.43	-0.36	133.47	-0.36	133.44	-24.74	36.08
360.00	-24.78	69.60	-0.36	131.81	-0.37	131.77	-25.34	33.00
362.00	-25.36	69.95	-0.37	130.20	-0.36	130.15	-25.96	29.62
364.00	-25.98	70.55	-0.37	128.53	-0.37	128.47	-26.67	25.86
366.00	-26.64	71.58	-0.37	126.87	-0.37	126.82	-27.42	21.71
368.00	-27.36	73.18	-0.37	125.17	-0.37	125.16	-28.25	16.94
370.00	-28.09	75.27	-0.38	123.48	-0.38	123.44	-29.12	11.48
372.00	-28.86	78.20	-0.37	121.75	-0.38	121.76	-30.05	5.11
374.00	-29.60	82.01	-0.37	120.07	-0.38	120.04	-31.01	-2.68
376.00	-30.40	86.84	-0.38	118.34	-0.38	118.33	-31.98	-11.91
378.00	-31.09	93.32	-0.38	116.61	-0.39	116.61	-32.83	-23.30
380.00	-31.65	100.82	-0.38	114.88	-0.39	114.85	-33.46	-36.39
382.00	-31.97	109.21	-0.39	113.13	-0.40	113.13	-33.76	-50.91
384.00	-32.00	118.27	-0.39	111.38	-0.40	111.37	-33.57	-65.49
386.00	-31.72	127.07	-0.40	109.57	-0.40	109.60	-33.03	-78.98
388.00	-31.22	134.80	-0.41	107.80	-0.40	107.85	-32.11	-90.64
390.00	-30.53	141.36	-0.40	106.00	-0.41	106.00	-31.17	-100.46
392.00	-29.77	146.54	-0.41	104.19	-0.42	104.21	-30.17	-108.59
394.00	-29.01	150.54	-0.42	102.39	-0.43	102.42	-29.20	-115.35
396.00	-28.24	153.45	-0.43	100.54	-0.43	100.56	-28.31	-121.16
398.00	-27.47	155.64	-0.43	98.68	-0.43	98.78	-27.47	-126.05
400.00	-26.77	157.14	-0.44	96.80	-0.44	96.91	-26.68	-130.41
402.00	-26.09	158.09	-0.45	94.99	-0.45	95.03	-25.98	-134.15
404.00	-25.51	158.63	-0.45	93.13	-0.45	93.18	-25.33	-137.77
406.00	-24.93	158.69	-0.46	91.25	-0.46	91.28	-24.73	-140.88
408.00	-24.41	158.52	-0.47	89.37	-0.47	89.40	-24.19	-143.70
410.00	-23.97	158.05	-0.47	87.43	-0.47	87.52	-23.69	-146.61
412.00	-23.51	157.49	-0.48	85.53	-0.48	85.59	-23.24	-149.16
414.00	-23.13	156.55	-0.49	83.58	-0.48	83.64	-22.84	-151.64
416.00	-22.78	155.61	-0.50	81.64	-0.49	81.70	-22.48	-153.96
418.00	-22.48	154.52	-0.50	79.69	-0.50	79.70	-22.15	-156.20
420.00	-22.21	153.29	-0.51	77.68	-0.50	77.75	-21.86	-158.32
422.00	-21.98	151.87	-0.51	75.69	-0.51	75.72	-21.60	-160.23
424.00	-21.80	150.27	-0.52	73.64	-0.51	73.70	-21.40	-162.35
426.00	-21.64	148.75	-0.53	71.61	-0.52	71.68	-21.22	-164.19
428.00	-21.50	147.22	-0.53	69.60	-0.52	69.63	-21.07	-165.86
430.00	-21.44	145.42	-0.54	67.50	-0.53	67.51	-20.95	-167.45
432.00	-21.43	143.50	-0.54	65.41	-0.53	65.42	-20.90	-169.17
434.00	-21.44	141.74	-0.55	63.29	-0.54	63.27	-20.87	-170.63
436.00	-21.48	139.63	-0.55	61.13	-0.55	61.13	-20.86	-171.89
438.00	-21.61	137.65	-0.56	58.97	-0.56	58.97	-20.90	-173.12
440.00	-21.77	135.41	-0.56	56.76	-0.56	56.76	-20.98	-174.16
442.00	-22.02	133.07	-0.57	54.55	-0.57	54.54	-21.10	-174.95
444.00	-22.30	130.59	-0.58	52.35	-0.57	52.28	-21.29	-175.54
446.00	-22.68	127.96	-0.58	50.04	-0.58	50.03	-21.49	-175.83
448.00	-23.17	125.20	-0.59	47.69	-0.59	47.68	-21.77	-175.77
450.00	-23.76	122.14	-0.60	45.37	-0.60	45.40	-22.10	-175.37
452.00	-24.50	118.82	-0.60	43.01	-0.60	43.00	-22.47	-174.25
454.00	-25.43	114.74	-0.61	40.58	-0.62	40.60	-22.91	-172.63
456.00	-26.59	110.46	-0.63	38.18	-0.62	38.17	-23.36	-169.79
458.00	-28.08	104.45	-0.63	35.68	-0.64	35.66	-23.79	-166.10
460.00	-30.02	96.44	-0.65	33.11	-0.65	33.16	-24.23	-160.95
462.00	-32.66	83.11	-0.66	30.55	-0.66	30.60	-24.50	-154.40
464.00	-35.86	57.08	-0.67	27.98	-0.67	27.99	-24.62	-146.44
466.00	-36.74	10.20	-0.69	25.30	-0.69	25.32	-24.40	-137.78
468.00	-33.29	-26.75	-0.71	22.55	-0.70	22.63	-23.82	-129.22
470.00	-29.52	-45.17	-0.73	19.83	-0.73	19.89	-22.98	-121.48
472.00	-26.51	-55.55	-0.75	17.01	-0.75	17.05	-21.92	-115.22
474.00	-24.03	-62.82	-0.78	14.13	-0.77	14.14	-20.76	-110.37
476.00	-21.96	-68.46	-0.81	11.17	-0.81	11.25	-19.53	-107.00
478.00	-20.18	-73.31	-0.85	8.24	-0.85	8.31	-18.33	-104.88
480.00	-18.60	-77.64	-0.89	5.16	-0.89	5.21	-17.16	-103.68
482.00	-17.18	-81.71	-0.95	2.09	-0.94	2.10	-16.05	-103.32
484.00	-15.90	-85.70	-1.01	-1.08	-1.00	-1.06	-14.98	-103.52
486.00	-14.73	-89.62	-1.07	-4.29	-1.07	-4.26	-13.97	-104.31
488.00	-13.66	-93.31	-1.15	-7.59	-1.15	-7.58	-13.01	-105.48
490.00	-12.65	-97.01	-1.24	-10.94	-1.24	-10.93	-12.10	-107.04
492.00	-11.73	-100.74	-1.34	-14.30	-1.34	-14.28	-11.26	-108.86
494.00	-10.85	-104.41	-1.45	-17.71	-1.45	-17.71	-10.45	-110.88
496.00	-10.04	-108.10	-1.58	-21.20	-1.59	-21.20	-9.69	-113.22
498.00	-9.28	-111.80	-1.72	-24.72	-1.72	-24.66	-8.98	-115.64
500.00	-8.58	-115.50	-1.87	-28.26	-1.87	-28.15	-8.30	-118.23
502.00	-7.92	-119.23	-2.04	-31.82	-2.05	-31.71	-7.67	-120.96
504.00	-7.31	-122.96	-2.23	-35.42	-2.24	-35.29	-7.08	-123.79
506.00	-6.73	-126.63	-2.44	-38.99	-2.43	-38.82	-6.53	-126.70
508.00	-6.20	-130.34	-2.65	-42.56	-2.65	-42.41	-6.01	-129.69
510.00	-5.70	-133.98	-2.88	-46.16	-2.88	-45.92	-5.53	-132.71
512.00	-5.24	-137.60	-3.14	-49.68	-3.13	-49.46	-5.09	-135.77
514.00	-4.81	-141.20	-3.40	-53.22	-3.39	-52.95	-4.67	-138.81
516.00	-4.42	-144.76	-3.68	-56.69	-3.67	-56.46	-4.30	-141.89
518.00	-4.05	-148.25	-3.98	-60.20	-3.96	-59.91	-3.95	-144.93
520.00	-3.73	-151.73	-4.29	-63.58	-4.26	-63.32	-3.62	-147.95
525.00	-2.99	-160.37	-5.16	-72.12	-5.14	-71.96	-2.91	-155.69
530.00	-2.42	-168.16	-6.07	-79.88	-6.04	-79.88	-2.36	-162.77
535.00	-1.97	-175.51	-7.04	-87.32	-7.01	-87.29	-1.93	-169.45
540.00	-1.62	177.63	-8.05	-94.15	-8.02	-94.26	-1.59	-175.73
545.00	-1.34	171.27	-9.09	-100.58	-9.07	-100.74	-1.31	178.42
550.00	-1.12	165.40	-10.14	-106.45	-10.14	-106.73	-1.10	172.95
555.00	-0.94	159.91	-11.20	-112.00	-11.21	-112.19	-0.93	167.81
560.00	-0.80	154.77	-12.26	-117.16	-12.29	-117.34	-0.80	162.99
565.00	-0.68	149.99	-13.31	-122.02	-13.35	-122.07	-0.69	158.53
570.00	-0.59	145.54	-14.37	-126.52	-14.41	-126.41	-0.60	154.36
575.00	-0.51	141.31	-15.42	-130.73	-15.44	-130.62	-0.54	150.45
580.00	-0.44	137.33	-16.45	-134.79	-16.45	-134.47	-0.47	146.74
585.00	-0.39	133.63	-17.47	-138.45	-17.46	-138.17	-0.43	143.23
590.00	-0.35	130.04	-18.47	-142.02	-18.45	-141.80	-0.38	139.86
595.00	-0.31	126.69	-19.47	-145.28	-19.44	-145.13	-0.34	136.74
600.00	-0.27	123.53	-20.42	-148.51	-20.40	-148.51	-0.31	133.71
605.00	-0.25	120.48	-21.42	-151.63	-21.36	-151.60	-0.29	130.80
610.00	-0.22	117.59	-22.34	-154.66	-22.31	-154.71	-0.26	128.11
615.00	-0.19	114.83	-23.27	-157.50	-23.25	-157.75	-0.24	125.51
620.00	-0.18	112.20	-24.21	-160.27	-24.17	-160.56	-0.22	122.95
625.00	-0.16	109.66	-25.12	-162.96	-25.09	-163.32	-0.21	120.50
630.00	-0.14	107.23	-26.03	-165.67	-26.03	-166.06	-0.19	118.17
635.00	-0.13	104.89	-26.94	-168.27	-26.95	-168.56	-0.18	115.94
640.00	-0.11	102.59	-27.84	-170.82	-27.89	-171.11	-0.17	113.71
645.00	-0.11	100.38	-28.76	-173.20	-28.82	-173.36	-0.16	111.63
650.00	-0.09	98.28	-29.64	-175.41	-29.73	-175.55	-0.16	109.58
655.00	-0.09	96.21	-30.55	-177.60	-30.62	-177.48	-0.15	107.57
660.00	-0.08	94.16	-31.46	-179.59	-31.49	-179.30	-0.14	105.69
665.00	-0.08	92.22	-32.32	178.54	-32.35	178.75	-0.13	103.82
670.00	-0.06	90.21	-33.16	176.76	-33.17	176.95	-0.12	102.01
675.00	-0.05	88.38	-33.97	174.95	-33.98	175.30	-0.11	100.25
680.00	-0.04	86.57	-34.79	173.26	-34.79	173.45	-0.10	98.52
685.00	-0.04	84.76	-35.58	171.58	-35.57	171.74	-0.10	96.89
690.00	-0.03	83.05	-36.34	169.67	-36.33	169.84	-0.09	95.21
695.00	-0.02	81.35	-37.12	168.10	-37.09	168.05	-0.08	93.64
700.00	-0.02	79.63	-37.87	165.92	-37.87	166.18	-0.08	92.05
705.00	-0.02	78.05	-38.71	164.34	-38.62	163.91	-0.08	90.53
710.00	-0.01	76.49	-39.42	162.55	-39.38	162.25	-0.07	89.01
715.00	-0.01	74.91	-40.22	160.39	-40.20	160.25	-0.07	87.56
720.00	-0.01	73.41	-40.99	158.86	-40.96	158.39	-0.06	86.14
725.00	-0.01	71.93	-41.76	157.08	-41.79	156.59	-0.06	84.70
730.00	0.00	70.43	-42.49	155.42	-42.60	154.64	-0.05	83.34
735.00	0.00	69.07	-43.25	153.45	-43.35	153.64	-0.06	81.99
740.00	0.00	67.69	-44.14	151.88	-44.13	152.17	-0.06	80.66
745.00	0.01	66.29	-44.82	150.63	-44.87	150.68	-0.05	79.36
750.00	0.01	64.94	-45.61	149.74	-45.62	149.07	-0.05	78.08
755.00	0.01	63.65	-46.27	148.13	-46.38	147.98	-0.04	76.89
760.00	0.01	62.33	-47.03	147.08	-47.06	146.55	-0.03	75.68
765.00	0.02	61.05	-47.67	145.37	-47.75	146.09	-0.04	74.45
770.00	0.02	59.76	-48.36	144.29	-48.52	144.95	-0.03	73.27
775.00	0.02	58.47	-49.03	143.21	-49.21	142.70	-0.03	72.09
780.00	0.02	57.18	-49.83	141.68	-49.83	142.67	-0.03	71.00
785.00	0.02	55.95	-50.42	140.80	-50.44	140.98	-0.03	69.84
790.00	0.02	54.72	-50.98	141.09	-51.01	139.18	-0.02	68.71
795.00	0.02	53.49	-51.57	138.56	-51.60	137.73	-0.02	67.64
