! Mini-Circuits								
! S2P DATA File Format								
! Type: HIGH PASS FILTER								
! Model: SXHP-48+								
! All S Parameters are in dB deg format								
! TEST CONDITIONS: INPUT POWER = 0 dBm @ Temperature = -40deg C								
! 329 Frequency points								
!								
# MHz S DB R 50							
!								
!FREQ   MAG(S11)PHS(S11) MAG(S21)PHS(S21)MAG(S12)PHS(S12)MAG(S22)PHS(S22)  
0.30	0	-0.69	-79.21	87.13	-80.14	75.91	0	-0.71
0.40	0	-0.92	-76.31	84.27	-76.8	93.77	0	-0.93
0.50	0	-1.14	-76.04	93.3	-75.18	86.54	0	-1.14
0.60	0	-1.35	-73.72	85.24	-73.83	89.91	0	-1.39
0.70	0	-1.61	-72.34	90.1	-72.26	90.58	0	-1.64
0.80	0	-1.8	-71.56	88.81	-71.41	89.7	0	-1.86
0.90	0	-2.04	-70.3	87.12	-70	87.59	0	-2.09
1.00	0	-2.26	-69.46	87.61	-69.26	88.02	0	-2.32
2.00	0	-4.52	-63.53	85.44	-63.47	84.83	0	-4.6
3.00	0	-6.78	-60.17	83.11	-60.13	83.32	0	-6.94
4.00	0	-9.06	-57.8	80.94	-57.85	81.11	0	-9.24
5.00	0	-11.32	-56.16	78.73	-56.12	78.61	0	-11.57
6.00	0	-13.63	-54.87	76.56	-54.86	76.43	0	-13.91
7.00	0	-15.91	-53.93	74.21	-53.91	74.03	0	-16.25
8.00	0	-18.23	-53.23	72.04	-53.17	71.91	0	-18.61
9.00	0	-20.55	-52.69	69.59	-52.62	69.42	0	-20.99
10.00	0	-22.88	-52.37	67.6	-52.38	67.28	0	-23.39
11.00	0	-25.24	-52.28	64.88	-52.25	65.15	0	-25.8
12.00	-0.01	-27.61	-52.28	62.37	-52.33	62.69	-0.01	-28.25
13.00	-0.01	-30.02	-52.6	60.3	-52.61	60.3	-0.01	-30.73
14.00	-0.01	-32.45	-53.04	57.78	-53.04	57.94	-0.01	-33.23
15.00	-0.01	-34.91	-53.79	55.86	-53.75	55.2	-0.01	-35.75
16.00	-0.01	-37.38	-54.9	53.76	-54.8	53.23	-0.01	-38.32
17.00	-0.01	-39.9	-56.19	50.97	-56.3	51.07	-0.01	-40.93
18.00	-0.01	-42.46	-58.37	50.12	-58.48	49.57	-0.01	-43.59
19.00	-0.02	-45.05	-61.53	47.6	-61.45	48.38	-0.01	-46.29
20.00	-0.02	-47.7	-66.7	50.74	-67.08	48.98	-0.01	-49.05
21.00	-0.02	-50.39	-82.56	108.01	-81.12	111.16	-0.02	-51.86
22.00	-0.02	-53.14	-68.15	-151.92	-67.63	-152.68	-0.02	-54.74
23.00	-0.02	-55.95	-61.63	-151.26	-61.39	-151.26	-0.02	-57.7
24.00	-0.03	-58.8	-58.1	-152.56	-58.12	-152.49	-0.03	-60.73
25.00	-0.03	-61.75	-55.98	-154.7	-55.9	-155.38	-0.03	-63.85
26.00	-0.04	-64.77	-54.43	-157.64	-54.49	-157.33	-0.03	-67.07
27.00	-0.04	-67.88	-53.5	-160.36	-53.54	-160.45	-0.04	-70.39
28.00	-0.04	-71.08	-53.23	-163.01	-53.1	-163.15	-0.04	-73.84
29.00	-0.05	-74.39	-53.41	-166	-53.37	-166.11	-0.05	-77.43
30.00	-0.06	-77.82	-54.27	-169.26	-54.28	-169.12	-0.05	-81.18
31.00	-0.06	-81.38	-56.21	-171.64	-56.37	-172.06	-0.06	-85.1
32.00	-0.07	-85.1	-60.66	-171.94	-60.84	-171.84	-0.07	-89.2
33.00	-0.08	-88.98	-76.52	-127.95	-77.71	-133.9	-0.08	-93.54
34.00	-0.09	-93.05	-60.59	-15.27	-60.57	-14.49	-0.08	-98.15
35.00	-0.1	-97.33	-53.85	-15.16	-53.76	-14.22	-0.1	-103.07
36.00	-0.11	-101.91	-50.05	-17.63	-50	-17.87	-0.11	-108.33
37.00	-0.13	-106.73	-48.04	-21.67	-48.02	-21.35	-0.13	-114.03
38.00	-0.15	-111.93	-47.67	-24.82	-47.62	-25.11	-0.16	-120.24
39.00	-0.17	-117.56	-50.81	-23.09	-50.71	-23.14	-0.18	-127.09
40.00	-0.2	-123.71	-56.14	93.73	-56.08	93.57	-0.22	-134.75
41.00	-0.23	-130.52	-40	119.15	-39.96	119.12	-0.26	-143.43
42.00	-0.28	-138.23	-31.37	114.06	-31.35	114.03	-0.33	-153.5
43.00	-0.36	-147.14	-24.66	104.93	-24.65	104.88	-0.43	-165.5
44.00	-0.49	-157.8	-18.81	92.67	-18.79	92.62	-0.61	179.69
45.00	-0.79	-171.01	-13.46	76.6	-13.45	76.54	-0.97	160.67
46.00	-1.53	172.27	-8.65	55.34	-8.63	55.26	-1.82	135.39
47.00	-3.28	152.48	-4.77	28.29	-4.76	28.25	-3.79	102.06
48.00	-6.65	135.04	-2.36	-1.32	-2.35	-1.38	-7.6	61.25
49.00	-11.19	129.31	-1.28	-27.93	-1.27	-27.96	-12.92	12.49
50.00	-14.95	137.9	-0.89	-49.34	-0.88	-49.35	-17.02	-46.27
51.00	-16.82	148.29	-0.73	-66.52	-0.72	-66.54	-18.01	-94.95
52.00	-18.08	151.94	-0.64	-80.83	-0.62	-80.87	-18.54	-125.21
53.00	-19.79	151.05	-0.56	-93.18	-0.55	-93.21	-19.85	-144.89
54.00	-22.4	148.98	-0.5	-104.13	-0.49	-104.15	-22.17	-158.67
55.00	-26.45	149.44	-0.46	-113.96	-0.44	-113.99	-25.93	-167.13
56.00	-33.39	165.57	-0.42	-122.89	-0.4	-122.92	-32.57	-163.88
57.00	-35.6	-111.02	-0.39	-131.04	-0.38	-131.09	-38.54	-79.83
58.00	-28.66	-85.38	-0.38	-138.55	-0.36	-138.58	-29.91	-46.43
59.00	-24.88	-83.46	-0.37	-145.46	-0.35	-145.5	-25.56	-46.28
60.00	-22.54	-85.72	-0.36	-151.87	-0.35	-151.91	-23.01	-50.17
61.00	-21	-89.32	-0.36	-157.84	-0.34	-157.86	-21.35	-54.85
62.00	-19.94	-93.19	-0.35	-163.4	-0.34	-163.45	-20.21	-59.53
63.00	-19.2	-97.27	-0.35	-168.63	-0.34	-168.66	-19.42	-64.1
64.00	-18.7	-101.36	-0.35	-173.52	-0.34	-173.57	-18.86	-68.41
65.00	-18.37	-105.44	-0.34	-178.16	-0.33	-178.21	-18.49	-72.49
66.00	-18.19	-109.46	-0.34	177.46	-0.33	177.41	-18.27	-76.31
67.00	-18.12	-113.37	-0.33	173.3	-0.32	173.24	-18.17	-79.86
68.00	-18.14	-117.23	-0.33	169.33	-0.32	169.28	-18.16	-83.23
69.00	-18.25	-120.97	-0.32	165.55	-0.31	165.5	-18.24	-86.29
70.00	-18.42	-124.67	-0.31	161.94	-0.3	161.9	-18.39	-89.15
71.00	-18.66	-128.27	-0.31	158.48	-0.29	158.43	-18.6	-91.79
72.00	-18.97	-131.86	-0.3	155.16	-0.29	155.11	-18.87	-94.2
73.00	-19.32	-135.47	-0.29	151.96	-0.28	151.93	-19.18	-96.34
74.00	-19.73	-138.95	-0.28	148.9	-0.27	148.86	-19.54	-98.21
75.00	-20.19	-142.48	-0.28	145.94	-0.26	145.91	-19.96	-99.92
76.00	-20.71	-146.02	-0.27	143.08	-0.26	143.06	-20.4	-101.31
77.00	-21.27	-149.65	-0.26	140.34	-0.25	140.3	-20.91	-102.45
78.00	-21.9	-153.28	-0.26	137.68	-0.24	137.64	-21.43	-103.25
79.00	-22.57	-157.01	-0.25	135.1	-0.24	135.06	-22	-103.75
80.00	-23.29	-160.95	-0.24	132.62	-0.23	132.58	-22.61	-103.78
81.00	-24.09	-165.08	-0.24	130.2	-0.23	130.17	-23.26	-103.46
82.00	-24.95	-169.56	-0.23	127.87	-0.22	127.83	-23.91	-102.56
83.00	-25.89	-174.35	-0.23	125.59	-0.22	125.57	-24.61	-101.2
84.00	-26.92	-179.74	-0.22	123.39	-0.21	123.38	-25.3	-99.16
85.00	-28.02	173.98	-0.22	121.26	-0.21	121.23	-25.98	-96.26
86.00	-29.2	166.75	-0.22	119.18	-0.21	119.16	-26.67	-92.86
87.00	-30.41	157.97	-0.22	117.17	-0.2	117.14	-27.28	-88.45
88.00	-31.64	147.06	-0.21	115.2	-0.2	115.18	-27.8	-83.13
89.00	-32.74	134.13	-0.21	113.29	-0.2	113.27	-28.2	-77.46
90.00	-33.47	118.88	-0.21	111.45	-0.2	111.41	-28.43	-71.07
91.00	-33.72	101.66	-0.21	109.62	-0.2	109.6	-28.49	-64.85
92.00	-33.36	86.34	-0.21	107.85	-0.2	107.83	-28.36	-58.42
93.00	-32.6	72.02	-0.21	106.13	-0.2	106.12	-28.15	-52.87
94.00	-31.66	60.93	-0.21	104.46	-0.19	104.42	-27.74	-47.94
95.00	-30.67	51.48	-0.21	102.82	-0.19	102.79	-27.36	-43.63
96.00	-29.72	44.5	-0.21	101.21	-0.19	101.2	-26.88	-40.19
97.00	-28.78	38.35	-0.21	99.66	-0.19	99.64	-26.39	-37.14
98.00	-27.96	33.3	-0.21	98.13	-0.19	98.1	-25.9	-34.82
99.00	-27.2	28.9	-0.21	96.64	-0.19	96.62	-25.41	-32.91
100.00	-26.5	25.16	-0.21	95.18	-0.2	95.16	-24.97	-31.36
105.00	-23.86	10.84	-0.21	88.37	-0.2	88.33	-23.01	-28.23
110.00	-22.12	0.93	-0.22	82.22	-0.21	82.19	-21.58	-28.79
115.00	-20.95	-7.05	-0.23	76.64	-0.21	76.6	-20.57	-30.88
120.00	-20.14	-13.69	-0.23	71.53	-0.22	71.49	-19.85	-33.73
125.00	-19.56	-19.49	-0.24	66.83	-0.22	66.8	-19.34	-36.74
130.00	-19.19	-24.57	-0.24	62.48	-0.23	62.44	-19.01	-39.67
135.00	-18.96	-28.99	-0.24	58.41	-0.23	58.38	-18.8	-42.39
140.00	-18.85	-33.09	-0.24	54.63	-0.23	54.58	-18.69	-44.9
145.00	-18.82	-36.74	-0.24	51.05	-0.23	51	-18.65	-47.35
150.00	-18.84	-40.33	-0.24	47.68	-0.23	47.65	-18.67	-49.84
155.00	-18.89	-43.76	-0.24	44.52	-0.23	44.47	-18.73	-52.55
160.00	-18.98	-47.15	-0.24	41.5	-0.23	41.46	-18.84	-55.37
165.00	-19.11	-50.35	-0.24	38.62	-0.22	38.57	-18.98	-58.24
170.00	-19.24	-53.43	-0.23	35.88	-0.22	35.82	-19.15	-61.12
175.00	-19.4	-56.36	-0.23	33.26	-0.21	33.22	-19.35	-63.89
180.00	-19.61	-59.02	-0.23	30.75	-0.21	30.69	-19.56	-66.57
185.00	-19.85	-61.35	-0.23	28.33	-0.21	28.27	-19.81	-69.15
190.00	-20.11	-63.63	-0.22	25.99	-0.21	25.94	-20.07	-71.6
195.00	-20.4	-65.68	-0.22	23.74	-0.21	23.7	-20.38	-74.01
200.00	-20.72	-67.45	-0.22	21.56	-0.2	21.52	-20.71	-76.36
205.00	-21.09	-69.13	-0.21	19.46	-0.2	19.4	-21.07	-78.81
210.00	-21.48	-70.52	-0.21	17.42	-0.19	17.37	-21.48	-81.15
215.00	-21.9	-72.17	-0.21	15.44	-0.19	15.39	-21.89	-83.66
220.00	-22.33	-73.62	-0.21	13.52	-0.19	13.46	-22.33	-86.24
225.00	-22.81	-74.91	-0.2	11.64	-0.19	11.59	-22.79	-88.87
230.00	-23.29	-76.08	-0.2	9.79	-0.19	9.75	-23.24	-91.55
235.00	-23.78	-77.2	-0.2	8.01	-0.18	7.97	-23.72	-94.18
240.00	-24.28	-78.14	-0.19	6.26	-0.18	6.22	-24.21	-97.01
245.00	-24.77	-79.15	-0.19	4.55	-0.18	4.51	-24.7	-99.83
250.00	-25.29	-80.09	-0.19	2.9	-0.18	2.85	-25.18	-102.72
255.00	-25.79	-80.76	-0.19	1.28	-0.18	1.24	-25.71	-105.5
260.00	-26.33	-81.49	-0.19	-0.31	-0.18	-0.36	-26.19	-108.6
265.00	-26.87	-82.07	-0.19	-1.88	-0.18	-1.92	-26.68	-111.52
270.00	-27.4	-82.72	-0.19	-3.42	-0.18	-3.47	-27.16	-114.66
275.00	-27.98	-83	-0.19	-4.94	-0.18	-4.98	-27.63	-117.66
280.00	-28.57	-83.05	-0.19	-6.43	-0.17	-6.46	-28.2	-120.7
285.00	-29.19	-82.96	-0.19	-7.89	-0.17	-7.93	-28.74	-123.89
290.00	-29.88	-83.09	-0.19	-9.33	-0.17	-9.38	-29.32	-126.66
295.00	-30.59	-83.16	-0.18	-10.72	-0.17	-10.79	-29.99	-130.18
300.00	-31.42	-83.3	-0.19	-12.11	-0.17	-12.16	-30.67	-133.53
305.00	-32.24	-82.98	-0.19	-13.48	-0.17	-13.52	-31.41	-137.15
310.00	-33.2	-82.79	-0.19	-14.83	-0.17	-14.86	-32.04	-141.23
315.00	-34.13	-82.25	-0.19	-16.16	-0.17	-16.21	-32.78	-145.23
320.00	-35.13	-82.45	-0.19	-17.48	-0.18	-17.52	-33.51	-149.29
325.00	-36.14	-82.1	-0.19	-18.8	-0.18	-18.82	-34.26	-153.37
330.00	-37.19	-81.51	-0.19	-20.08	-0.18	-20.12	-35.05	-158.33
335.00	-38.31	-79.98	-0.19	-21.36	-0.18	-21.39	-35.74	-163.01
340.00	-39.56	-78.84	-0.19	-22.62	-0.18	-22.64	-36.53	-168.06
345.00	-40.93	-75.89	-0.19	-23.85	-0.18	-23.89	-37.36	-173.48
350.00	-42.39	-72.31	-0.19	-25.06	-0.17	-25.11	-38.15	-180
355.00	-44.41	-66.53	-0.19	-26.25	-0.18	-26.3	-39.18	172.15
360.00	-46.6	-56.28	-0.19	-27.45	-0.17	-27.51	-39.82	163.62
365.00	-49.27	-38.53	-0.19	-28.65	-0.18	-28.7	-40.64	153.66
370.00	-50.48	-7.31	-0.19	-29.84	-0.18	-29.89	-41.17	141.55
375.00	-48.9	25.57	-0.19	-31.02	-0.18	-31.08	-41.55	127.94
380.00	-46.54	44.43	-0.19	-32.19	-0.18	-32.25	-41.53	113.66
385.00	-43.82	52.6	-0.19	-33.34	-0.18	-33.4	-41.02	99.89
390.00	-41.73	57.8	-0.19	-34.5	-0.18	-34.54	-40.2	88.35
395.00	-39.93	61.39	-0.19	-35.62	-0.18	-35.66	-39.28	78.81
400.00	-38.54	63	-0.19	-36.73	-0.18	-36.77	-38.18	69.75
405.00	-37.3	63.88	-0.19	-37.82	-0.18	-37.87	-37.26	64.29
410.00	-36.26	64.43	-0.19	-38.93	-0.18	-38.97	-36.38	60.49
415.00	-35.38	63.46	-0.19	-40.03	-0.18	-40.07	-35.62	56.64
420.00	-34.66	63.27	-0.2	-41.13	-0.18	-41.17	-34.92	53.74
425.00	-33.94	62.23	-0.2	-42.23	-0.19	-42.25	-34.25	50.65
430.00	-33.38	61.65	-0.2	-43.3	-0.19	-43.33	-33.62	48.16
435.00	-32.85	60.37	-0.2	-44.38	-0.19	-44.41	-33.01	46.12
440.00	-32.21	59.28	-0.2	-45.44	-0.19	-45.45	-32.48	43.95
445.00	-31.74	57.7	-0.2	-46.49	-0.19	-46.51	-31.93	42.26
450.00	-31.23	56.89	-0.2	-47.52	-0.19	-47.54	-31.4	40.7
455.00	-30.72	55.78	-0.2	-48.55	-0.19	-48.57	-30.86	39.14
460.00	-30.2	54.78	-0.2	-49.59	-0.19	-49.6	-30.33	37.8
465.00	-29.72	53.67	-0.2	-50.63	-0.19	-50.64	-29.86	36.2
470.00	-29.32	52.71	-0.2	-51.67	-0.19	-51.67	-29.45	34.96
475.00	-28.91	51.37	-0.21	-52.7	-0.19	-52.69	-29	33.64
480.00	-28.54	50.06	-0.21	-53.72	-0.19	-53.73	-28.68	32.5
485.00	-28.21	49.03	-0.21	-54.74	-0.19	-54.73	-28.3	31.4
490.00	-27.92	47.8	-0.21	-55.75	-0.2	-55.74	-27.99	30.66
495.00	-27.67	46.5	-0.21	-56.74	-0.2	-56.75	-27.71	29.84
500.00	-27.42	45.07	-0.21	-57.72	-0.2	-57.74	-27.45	29.1
505.00	-27.16	43.56	-0.21	-58.7	-0.2	-58.72	-27.2	28.52
510.00	-26.93	41.95	-0.21	-59.7	-0.2	-59.71	-26.95	27.96
515.00	-26.72	40.55	-0.22	-60.69	-0.2	-60.7	-26.73	27.34
520.00	-26.48	39.02	-0.22	-61.67	-0.2	-61.69	-26.5	26.7
525.00	-26.28	37.68	-0.22	-62.65	-0.2	-62.67	-26.28	26
530.00	-26.06	36.28	-0.22	-63.63	-0.21	-63.66	-26.07	24.97
535.00	-25.85	34.89	-0.22	-64.62	-0.21	-64.63	-25.85	24.25
540.00	-25.6	33.7	-0.22	-65.58	-0.21	-65.62	-25.6	23.32
545.00	-25.38	32.45	-0.22	-66.55	-0.21	-66.58	-25.37	22.56
550.00	-25.15	31.3	-0.22	-67.5	-0.21	-67.52	-25.13	21.76
555.00	-24.93	30.12	-0.22	-68.44	-0.21	-68.48	-24.93	21.06
560.00	-24.74	28.97	-0.23	-69.39	-0.21	-69.43	-24.71	20.1
565.00	-24.55	27.87	-0.23	-70.34	-0.21	-70.37	-24.56	19.46
570.00	-24.41	26.85	-0.23	-71.28	-0.21	-71.34	-24.42	18.78
575.00	-24.27	25.6	-0.23	-72.24	-0.21	-72.31	-24.27	18.14
580.00	-24.15	24.66	-0.23	-73.19	-0.22	-73.26	-24.15	17.34
585.00	-24.08	23.54	-0.23	-74.14	-0.22	-74.2	-24.05	16.65
590.00	-23.96	22.38	-0.23	-75.08	-0.22	-75.14	-23.96	15.99
595.00	-23.86	21.36	-0.23	-76	-0.22	-76.08	-23.86	15.19
600.00	-23.76	20.31	-0.23	-76.92	-0.22	-77	-23.75	14.43
605.00	-23.64	19.27	-0.23	-77.84	-0.22	-77.92	-23.63	13.61
610.00	-23.53	18.21	-0.24	-78.78	-0.22	-78.84	-23.52	12.82
615.00	-23.42	17.37	-0.24	-79.7	-0.23	-79.77	-23.42	11.9
620.00	-23.31	16.52	-0.24	-80.63	-0.23	-80.7	-23.29	10.96
625.00	-23.19	15.75	-0.24	-81.56	-0.23	-81.63	-23.18	9.87
630.00	-23.06	14.9	-0.24	-82.49	-0.23	-82.56	-23.06	8.88
635.00	-22.95	14.26	-0.24	-83.41	-0.23	-83.48	-22.96	7.82
640.00	-22.83	13.46	-0.24	-84.32	-0.23	-84.4	-22.84	6.71
645.00	-22.71	12.71	-0.24	-85.25	-0.23	-85.3	-22.73	5.66
650.00	-22.62	11.98	-0.24	-86.13	-0.23	-86.2	-22.63	4.59
655.00	-22.51	11.23	-0.24	-87.05	-0.23	-87.11	-22.55	3.46
660.00	-22.44	10.54	-0.25	-87.94	-0.23	-88	-22.49	2.41
665.00	-22.37	9.8	-0.25	-88.85	-0.23	-88.91	-22.42	1.3
670.00	-22.32	9.05	-0.25	-89.76	-0.24	-89.82	-22.38	0.27
675.00	-22.26	8.43	-0.25	-90.66	-0.24	-90.72	-22.34	-0.87
680.00	-22.21	7.84	-0.25	-91.58	-0.24	-91.62	-22.3	-1.7
685.00	-22.14	7.13	-0.25	-92.49	-0.24	-92.53	-22.23	-2.83
690.00	-22.07	6.5	-0.25	-93.38	-0.24	-93.43	-22.18	-3.87
695.00	-21.98	5.79	-0.25	-94.28	-0.24	-94.33	-22.08	-5.01
700.00	-21.87	5.15	-0.25	-95.17	-0.24	-95.21	-21.97	-6.18
705.00	-21.75	4.43	-0.26	-96.05	-0.24	-96.09	-21.91	-7.32
710.00	-21.67	3.9	-0.26	-96.94	-0.25	-96.98	-21.82	-8.44
715.00	-21.55	3.29	-0.26	-97.83	-0.25	-97.88	-21.72	-9.65
720.00	-21.46	2.71	-0.26	-98.72	-0.25	-98.76	-21.63	-10.82
725.00	-21.38	2.11	-0.26	-99.61	-0.25	-99.65	-21.54	-11.94
730.00	-21.31	1.6	-0.27	-100.51	-0.25	-100.55	-21.46	-13.18
735.00	-21.23	0.99	-0.27	-101.39	-0.25	-101.44	-21.4	-14.28
740.00	-21.15	0.36	-0.27	-102.27	-0.25	-102.33	-21.33	-15.38
745.00	-21.09	-0.15	-0.27	-103.15	-0.25	-103.19	-21.27	-16.47
750.00	-21.02	-0.82	-0.27	-104.03	-0.26	-104.08	-21.21	-17.51
755.00	-20.95	-1.39	-0.27	-104.89	-0.26	-104.94	-21.16	-18.57
760.00	-20.89	-2.15	-0.27	-105.76	-0.26	-105.81	-21.1	-19.54
765.00	-20.82	-2.69	-0.27	-106.64	-0.26	-106.69	-21.06	-20.51
770.00	-20.76	-3.42	-0.28	-107.52	-0.26	-107.58	-21.01	-21.49
775.00	-20.68	-4.06	-0.27	-108.42	-0.27	-108.46	-20.94	-22.51
780.00	-20.61	-4.81	-0.28	-109.31	-0.27	-109.34	-20.86	-23.6
785.00	-20.51	-5.41	-0.28	-110.18	-0.27	-110.22	-20.78	-24.67
790.00	-20.43	-6.22	-0.28	-111.06	-0.27	-111.1	-20.69	-25.73
795.00	-20.32	-6.9	-0.28	-111.93	-0.27	-111.97	-20.58	-26.78
800.00	-20.2	-7.75	-0.28	-112.8	-0.27	-112.84	-20.47	-27.97
805.00	-20.12	-8.68	-0.29	-113.64	-0.28	-113.7	-20.38	-29.16
810.00	-20.09	-9.26	-0.29	-114.48	-0.28	-114.52	-20.36	-30.25
815.00	-20.01	-9.65	-0.29	-115.34	-0.28	-115.39	-20.29	-30.92
820.00	-19.93	-10.32	-0.29	-116.22	-0.28	-116.27	-20.22	-31.84
825.00	-19.86	-11.03	-0.29	-117.11	-0.28	-117.14	-20.15	-32.67
830.00	-19.8	-11.79	-0.29	-117.98	-0.28	-118.02	-20.09	-33.5
835.00	-19.74	-12.54	-0.29	-118.86	-0.28	-118.89	-20.05	-34.39
840.00	-19.68	-13.39	-0.29	-119.72	-0.28	-119.76	-20	-35.28
845.00	-19.63	-14.23	-0.29	-120.58	-0.29	-120.62	-19.94	-36.12
850.00	-19.57	-15.13	-0.3	-121.44	-0.28	-121.48	-19.88	-36.99
855.00	-19.5	-15.96	-0.3	-122.28	-0.29	-122.31	-19.8	-37.84
860.00	-19.41	-16.85	-0.3	-123.14	-0.29	-123.16	-19.73	-38.72
865.00	-19.35	-17.58	-0.3	-124	-0.29	-124.02	-19.66	-39.64
870.00	-19.26	-18.29	-0.3	-124.86	-0.3	-124.88	-19.59	-40.59
875.00	-19.2	-19.12	-0.3	-125.73	-0.3	-125.73	-19.51	-41.52
880.00	-19.11	-19.87	-0.3	-126.59	-0.3	-126.6	-19.43	-42.51
885.00	-19.02	-20.58	-0.31	-127.45	-0.3	-127.45	-19.35	-43.47
890.00	-18.95	-21.31	-0.31	-128.29	-0.3	-128.3	-19.28	-44.5
895.00	-18.87	-21.96	-0.31	-129.15	-0.3	-129.14	-19.21	-45.43
900.00	-18.79	-22.7	-0.31	-129.98	-0.31	-129.97	-19.14	-46.38
905.00	-18.72	-23.45	-0.31	-130.84	-0.3	-130.81	-19.08	-47.27
910.00	-18.66	-24.2	-0.32	-131.67	-0.31	-131.63	-19.03	-48.1
915.00	-18.63	-24.93	-0.32	-132.52	-0.31	-132.48	-18.99	-49.03
920.00	-18.6	-25.8	-0.32	-133.36	-0.31	-133.34	-18.97	-49.83
925.00	-18.56	-26.57	-0.32	-134.22	-0.31	-134.18	-18.94	-50.64
930.00	-18.53	-27.34	-0.32	-135.06	-0.31	-135.03	-18.9	-51.45
935.00	-18.49	-28.21	-0.33	-135.93	-0.32	-135.88	-18.86	-52.31
940.00	-18.45	-29.06	-0.33	-136.77	-0.32	-136.74	-18.82	-53.11
945.00	-18.4	-29.88	-0.33	-137.62	-0.32	-137.56	-18.77	-54.02
950.00	-18.34	-30.66	-0.33	-138.46	-0.32	-138.4	-18.71	-54.84
955.00	-18.26	-31.41	-0.33	-139.28	-0.32	-139.23	-18.66	-55.72
960.00	-18.19	-32.16	-0.33	-140.13	-0.32	-140.06	-18.58	-56.66
965.00	-18.12	-32.84	-0.34	-140.97	-0.32	-140.91	-18.52	-57.63
970.00	-18.05	-33.46	-0.34	-141.82	-0.33	-141.76	-18.47	-58.64
975.00	-17.99	-34.13	-0.34	-142.67	-0.33	-142.61	-18.42	-59.62
980.00	-17.93	-34.72	-0.34	-143.52	-0.33	-143.45	-18.38	-60.64
985.00	-17.88	-35.41	-0.34	-144.36	-0.33	-144.3	-18.34	-61.62
990.00	-17.83	-36.06	-0.35	-145.21	-0.33	-145.15	-18.3	-62.57
995.00	-17.8	-36.78	-0.35	-146.03	-0.33	-145.99	-18.27	-63.53
1000.00	-17.77	-37.43	-0.35	-146.85	-0.33	-146.81	-18.24	-64.38
1005.00	-17.74	-38.16	-0.35	-147.67	-0.34	-147.63	-18.21	-65.27
1010.00	-17.72	-38.85	-0.35	-148.51	-0.34	-148.47	-18.19	-66.14
1015.00	-17.69	-39.56	-0.36	-149.35	-0.34	-149.31	-18.18	-67.01
1020.00	-17.66	-40.27	-0.36	-150.19	-0.34	-150.16	-18.17	-67.91
1025.00	-17.64	-41	-0.36	-151.03	-0.34	-151	-18.15	-68.81
1030.00	-17.61	-41.66	-0.36	-151.87	-0.34	-151.86	-18.12	-69.77
1035.00	-17.57	-42.31	-0.36	-152.71	-0.34	-152.71	-18.1	-70.74
1040.00	-17.52	-42.93	-0.36	-153.55	-0.34	-153.55	-18.08	-71.81
1045.00	-17.47	-43.5	-0.36	-154.38	-0.34	-154.38	-18.05	-72.9
1050.00	-17.42	-44.06	-0.36	-155.2	-0.35	-155.21	-18.01	-73.94
1055.00	-17.37	-44.63	-0.37	-156.02	-0.35	-156.05	-17.98	-75.02
1060.00	-17.32	-45.21	-0.37	-156.85	-0.35	-156.88	-17.94	-76.08
1065.00	-17.28	-45.73	-0.37	-157.69	-0.35	-157.73	-17.92	-77.17
1070.00	-17.25	-46.34	-0.37	-158.52	-0.35	-158.56	-17.89	-78.25
1075.00	-17.22	-46.94	-0.37	-159.37	-0.36	-159.4	-17.87	-79.29
1080.00	-17.2	-47.55	-0.37	-160.21	-0.36	-160.26	-17.85	-80.31
1085.00	-17.18	-48.21	-0.38	-161.05	-0.36	-161.09	-17.84	-81.3
1090.00	-17.16	-48.86	-0.38	-161.89	-0.36	-161.92	-17.82	-82.26
1095.00	-17.14	-49.58	-0.38	-162.71	-0.36	-162.75	-17.8	-83.21
1100.00	-17.11	-50.33	-0.38	-163.55	-0.36	-163.57	-17.78	-84.16
1105.00	-17.08	-51.02	-0.38	-164.36	-0.37	-164.39	-17.76	-85.11
1110.00	-17.05	-51.69	-0.38	-165.19	-0.37	-165.22	-17.75	-86.1
1115.00	-17.02	-52.35	-0.39	-166.02	-0.37	-166.07	-17.73	-87.15
1120.00	-16.99	-53.05	-0.39	-166.86	-0.37	-166.9	-17.71	-88.21
1125.00	-16.96	-53.71	-0.39	-167.69	-0.38	-167.74	-17.7	-89.36
1130.00	-16.94	-54.37	-0.4	-168.51	-0.38	-168.57	-17.7	-90.56
1135.00	-16.93	-54.76	-0.4	-169.33	-0.38	-169.38	-17.71	-91.5
1140.00	-16.88	-55.22	-0.39	-170.17	-0.37	-170.23	-17.68	-92.46
1145.00	-16.84	-55.77	-0.39	-170.97	-0.38	-171.06	-17.65	-93.42
1150.00	-16.81	-56.34	-0.4	-171.81	-0.38	-171.89	-17.62	-94.41
1155.00	-16.78	-56.97	-0.4	-172.64	-0.38	-172.71	-17.59	-95.34
1160.00	-16.76	-57.64	-0.4	-173.46	-0.38	-173.52	-17.57	-96.3
1165.00	-16.74	-58.33	-0.4	-174.29	-0.39	-174.35	-17.56	-97.19
1170.00	-16.74	-59.04	-0.4	-175.12	-0.39	-175.18	-17.55	-98.03
1175.00	-16.73	-59.86	-0.41	-175.95	-0.39	-176.01	-17.55	-98.88
1180.00	-16.72	-60.56	-0.41	-176.78	-0.39	-176.86	-17.56	-99.66
1185.00	-16.71	-61.36	-0.41	-177.61	-0.39	-177.7	-17.55	-100.48
1190.00	-16.7	-62.16	-0.41	-178.45	-0.4	-178.52	-17.55	-101.35
1195.00	-16.69	-62.92	-0.41	-179.26	-0.4	-179.32	-17.55	-102.24
