! Mini-Circuits								
! S2P DATA File Format								
! Type: LOW PASS FILTER								
! Model: ZFLP-450+								
! All S Parameters are in dB deg format								
! TEST CONDITIONS: INPUT POWER = 0 dBm @ Temperature = - 40 deg C								
! 401 Frequency points								
!								
# MHz S DB R 50								
!								
!FREQMAG(S11)PHS(S11)MAG(S21)PHS(S21)MAG(S12)PHS(S12)MAG(S22)PHS(S22)  								
0.50	-54.26	19.91	-0.01	-0.30	-0.02	-0.29	-54.53	19.89
2.00	-52.86	33.40	-0.03	-1.19	-0.03	-1.21	-52.69	33.62
3.50	-50.77	43.19	-0.02	-2.13	-0.02	-2.10	-50.69	40.34
5.00	-49.23	48.44	-0.02	-3.01	-0.02	-3.03	-48.99	44.33
10.00	-45.28	60.28	-0.03	-6.01	-0.03	-5.99	-44.84	50.23
15.00	-42.46	63.38	-0.03	-8.99	-0.03	-8.95	-42.04	49.11
20.00	-40.37	65.59	-0.04	-11.96	-0.03	-12.01	-39.78	46.41
25.00	-38.63	65.54	-0.04	-14.94	-0.04	-14.99	-37.99	43.49
30.00	-37.06	64.66	-0.05	-17.88	-0.04	-17.96	-36.48	40.36
35.00	-35.81	63.82	-0.05	-20.96	-0.06	-20.90	-35.17	37.47
40.00	-34.59	62.41	-0.06	-23.86	-0.06	-23.92	-33.99	35.21
45.00	-33.53	60.44	-0.06	-26.86	-0.06	-26.88	-32.94	33.17
50.00	-32.64	58.06	-0.06	-29.78	-0.07	-29.84	-32.00	30.90
55.00	-31.90	55.63	-0.06	-32.79	-0.07	-32.77	-31.28	28.82
60.00	-31.23	52.82	-0.07	-35.77	-0.06	-35.76	-30.63	26.64
65.00	-30.67	49.59	-0.07	-38.72	-0.07	-38.82	-30.07	24.50
70.00	-30.22	46.49	-0.08	-41.71	-0.08	-41.75	-29.63	22.10
75.00	-29.88	43.41	-0.08	-44.68	-0.08	-44.75	-29.28	19.50
80.00	-29.62	40.69	-0.08	-47.65	-0.09	-47.74	-29.03	16.78
85.00	-29.46	38.39	-0.09	-50.68	-0.09	-50.72	-28.86	13.75
90.00	-29.39	36.39	-0.09	-53.62	-0.09	-53.72	-28.72	10.66
95.00	-29.38	34.71	-0.09	-56.66	-0.09	-56.72	-28.67	6.91
100.00	-29.42	33.47	-0.10	-59.68	-0.09	-59.78	-28.68	2.88
105.00	-29.50	32.52	-0.10	-62.71	-0.10	-62.74	-28.70	-1.85
110.00	-29.61	32.12	-0.09	-65.73	-0.10	-65.78	-28.78	-7.13
115.00	-29.75	31.92	-0.10	-68.74	-0.10	-68.80	-28.85	-12.71
120.00	-29.88	32.26	-0.10	-71.80	-0.10	-71.82	-28.88	-19.00
125.00	-29.95	32.69	-0.10	-74.94	-0.10	-74.95	-28.89	-25.32
130.00	-29.97	34.00	-0.11	-77.96	-0.11	-78.03	-28.90	-31.81
135.00	-29.97	35.63	-0.11	-81.03	-0.11	-81.10	-28.88	-38.17
140.00	-29.91	37.46	-0.11	-84.13	-0.11	-84.21	-28.87	-44.77
145.00	-29.76	39.45	-0.11	-87.20	-0.11	-87.29	-28.84	-51.33
150.00	-29.64	41.37	-0.12	-90.30	-0.12	-90.36	-28.77	-58.29
155.00	-29.51	42.98	-0.12	-93.43	-0.12	-93.48	-28.74	-65.45
160.00	-29.40	44.51	-0.12	-96.55	-0.13	-96.61	-28.67	-72.62
165.00	-29.25	46.00	-0.12	-99.71	-0.12	-99.73	-28.59	-79.78
170.00	-29.04	47.09	-0.13	-102.85	-0.13	-102.89	-28.52	-86.96
175.00	-28.86	48.32	-0.13	-105.97	-0.13	-106.01	-28.40	-94.29
180.00	-28.63	49.53	-0.14	-109.16	-0.13	-109.23	-28.29	-101.52
185.00	-28.34	50.97	-0.14	-112.30	-0.13	-112.43	-28.18	-109.16
190.00	-28.03	52.26	-0.14	-115.52	-0.13	-115.62	-28.06	-116.74
195.00	-27.70	53.62	-0.14	-118.79	-0.14	-118.89	-27.89	-124.55
200.00	-27.34	54.93	-0.14	-122.02	-0.15	-122.09	-27.68	-132.59
205.00	-26.95	55.66	-0.15	-125.26	-0.15	-125.35	-27.42	-140.45
210.00	-26.53	56.13	-0.15	-128.55	-0.16	-128.58	-27.11	-147.98
215.00	-26.10	56.09	-0.15	-131.81	-0.15	-131.84	-26.75	-154.98
220.00	-25.63	55.25	-0.16	-135.13	-0.15	-135.20	-26.34	-161.74
225.00	-25.17	53.93	-0.16	-138.41	-0.15	-138.51	-25.94	-167.88
230.00	-24.72	52.30	-0.16	-141.77	-0.16	-141.89	-25.55	-173.60
235.00	-24.32	50.46	-0.16	-145.13	-0.17	-145.26	-25.15	-178.96
240.00	-23.94	48.44	-0.17	-148.55	-0.17	-148.59	-24.79	176.19
245.00	-23.63	46.05	-0.18	-151.96	-0.17	-151.98	-24.45	171.12
250.00	-23.35	43.39	-0.19	-155.35	-0.18	-155.38	-24.19	166.37
255.00	-23.11	40.59	-0.19	-158.80	-0.18	-158.82	-23.97	162.18
260.00	-22.93	37.29	-0.19	-162.22	-0.18	-162.29	-23.79	158.26
265.00	-22.77	33.93	-0.19	-165.61	-0.18	-165.79	-23.64	154.66
270.00	-22.66	30.00	-0.19	-169.18	-0.18	-169.32	-23.56	151.12
275.00	-22.55	25.80	-0.19	-172.75	-0.20	-172.85	-23.48	147.98
280.00	-22.47	21.64	-0.19	-176.31	-0.20	-176.42	-23.42	144.84
285.00	-22.42	17.26	-0.19	-179.87	-0.20	179.98	-23.38	141.80
290.00	-22.41	12.70	-0.21	176.42	-0.21	176.43	-23.36	138.90
295.00	-22.45	8.03	-0.21	172.84	-0.22	172.79	-23.39	136.25
300.00	-22.54	2.94	-0.21	169.13	-0.21	169.10	-23.47	133.99
305.00	-22.65	-2.37	-0.21	165.41	-0.21	165.34	-23.56	131.89
310.00	-22.79	-8.18	-0.22	161.66	-0.21	161.63	-23.71	130.43
315.00	-22.92	-14.40	-0.22	157.86	-0.21	157.82	-23.86	129.24
320.00	-23.06	-20.97	-0.22	154.09	-0.22	153.95	-23.99	128.16
325.00	-23.20	-27.86	-0.22	150.23	-0.23	150.15	-24.13	127.53
330.00	-23.33	-35.06	-0.22	146.30	-0.22	146.23	-24.23	127.19
335.00	-23.43	-42.72	-0.22	142.34	-0.23	142.29	-24.29	126.95
340.00	-23.61	-50.75	-0.24	138.38	-0.23	138.31	-24.32	127.23
345.00	-23.72	-59.51	-0.23	134.34	-0.23	134.30	-24.32	127.93
350.00	-23.83	-68.67	-0.23	130.23	-0.24	130.16	-24.26	129.01
355.00	-23.88	-78.11	-0.24	126.11	-0.25	126.03	-24.17	130.26
360.00	-23.90	-87.89	-0.25	121.95	-0.25	121.84	-24.07	131.55
365.00	-23.84	-97.47	-0.25	117.67	-0.26	117.62	-23.91	132.70
370.00	-23.79	-107.14	-0.26	113.40	-0.26	113.33	-23.76	133.46
375.00	-23.74	-116.27	-0.26	109.04	-0.26	109.05	-23.62	133.85
380.00	-23.69	-125.50	-0.27	104.62	-0.28	104.60	-23.54	133.71
385.00	-23.70	-134.14	-0.28	100.11	-0.28	100.10	-23.48	133.04
390.00	-23.81	-142.56	-0.30	95.58	-0.29	95.59	-23.47	132.18
395.00	-23.91	-150.95	-0.30	91.02	-0.30	90.98	-23.53	130.82
400.00	-24.17	-159.09	-0.31	86.36	-0.31	86.27	-23.73	129.02
405.00	-24.54	-166.59	-0.31	81.62	-0.31	81.51	-24.10	126.84
410.00	-25.17	-173.68	-0.31	76.70	-0.31	76.64	-24.70	124.32
415.00	-26.23	179.71	-0.31	71.70	-0.31	71.62	-25.64	121.84
420.00	-27.87	173.60	-0.32	66.53	-0.32	66.50	-27.16	119.02
425.00	-30.71	169.20	-0.33	61.35	-0.33	61.26	-29.66	117.14
430.00	-36.32	170.86	-0.34	55.94	-0.33	55.85	-34.44	118.79
435.00	-44.85	-91.77	-0.35	50.37	-0.34	50.24	-47.50	-178.62
440.00	-32.10	-53.91	-0.36	44.62	-0.36	44.55	-33.51	-93.76
445.00	-26.03	-55.59	-0.38	38.59	-0.38	38.52	-26.62	-92.41
450.00	-21.94	-61.18	-0.41	32.42	-0.42	32.32	-22.23	-95.34
460.00	-16.12	-75.07	-0.54	19.21	-0.56	19.07	-16.20	-105.06
470.00	-11.88	-90.62	-0.79	4.92	-0.79	4.91	-11.89	-117.41
480.00	-8.59	-107.17	-1.23	-10.53	-1.22	-10.63	-8.59	-131.47
490.00	-6.08	-124.47	-1.97	-26.49	-1.99	-26.90	-6.04	-146.61
500.00	-4.21	-141.86	-2.99	-42.54	-3.07	-42.64	-4.16	-161.85
510.00	-2.89	-158.34	-4.33	-58.42	-4.39	-58.11	-2.83	-176.55
520.00	-2.01	-173.41	-6.04	-72.98	-6.07	-72.55	-1.95	169.88
530.00	-1.44	173.15	-7.92	-85.10	-7.92	-84.46	-1.37	157.76
540.00	-1.07	161.27	-9.76	-95.49	-9.70	-94.84	-1.00	146.96
550.00	-0.83	150.80	-11.58	-105.22	-11.47	-105.09	-0.76	137.46
560.00	-0.68	141.63	-13.49	-114.25	-13.43	-114.54	-0.61	129.06
570.00	-0.57	133.34	-15.45	-122.01	-15.48	-122.03	-0.50	121.64
580.00	-0.50	125.90	-17.36	-128.32	-17.40	-127.85	-0.43	114.83
590.00	-0.45	119.13	-19.17	-133.92	-19.11	-133.26	-0.37	108.78
600.00	-0.41	113.00	-20.93	-139.53	-20.82	-139.49	-0.34	103.09
610.00	-0.38	107.33	-22.75	-145.02	-22.67	-145.38	-0.32	97.86
620.00	-0.36	102.06	-24.63	-149.84	-24.62	-149.90	-0.29	92.98
630.00	-0.34	97.05	-26.44	-153.72	-26.43	-153.31	-0.28	88.50
640.00	-0.33	92.40	-28.17	-158.05	-28.13	-157.34	-0.26	84.24
650.00	-0.31	88.09	-30.09	-162.45	-29.96	-161.90	-0.24	80.21
660.00	-0.29	84.06	-32.13	-165.70	-31.99	-165.40	-0.24	76.29
670.00	-0.29	80.11	-34.10	-167.37	-33.97	-167.66	-0.22	72.56
680.00	-0.28	76.37	-35.92	-170.20	-35.85	-170.70	-0.22	69.01
690.00	-0.27	72.73	-38.04	-174.35	-38.01	-174.65	-0.21	65.68
700.00	-0.26	69.37	-40.63	-177.33	-40.59	-177.26	-0.20	62.48
710.00	-0.25	66.14	-43.51	-177.97	-43.45	-178.43	-0.18	59.43
720.00	-0.25	63.05	-46.58	-177.93	-46.49	-177.85	-0.18	56.45
730.00	-0.24	59.99	-50.29	-176.62	-50.41	-177.63	-0.18	53.57
740.00	-0.23	57.05	-55.96	-172.67	-56.05	-174.30	-0.17	50.74
750.00	-0.23	54.32	-64.79	-130.21	-65.54	-125.93	-0.16	48.01
760.00	-0.22	51.56	-60.47	-41.98	-60.46	-48.69	-0.15	45.39
770.00	-0.21	48.91	-54.79	-31.10	-54.74	-29.78	-0.15	42.86
780.00	-0.22	46.32	-51.69	-30.42	-51.55	-30.10	-0.15	40.39
790.00	-0.20	43.84	-49.86	-29.82	-49.80	-30.57	-0.14	37.91
800.00	-0.20	41.48	-48.51	-31.57	-48.47	-31.41	-0.14	35.53
810.00	-0.20	39.20	-47.58	-30.56	-47.56	-32.20	-0.14	33.18
820.00	-0.19	36.87	-46.57	-31.63	-46.46	-32.65	-0.13	30.95
830.00	-0.18	34.52	-45.83	-35.37	-45.90	-35.57	-0.12	28.88
840.00	-0.18	32.50	-45.72	-38.01	-45.74	-38.09	-0.12	26.80
850.00	-0.18	30.32	-45.65	-37.08	-45.54	-36.91	-0.12	24.77
860.00	-0.18	28.31	-45.01	-36.24	-44.91	-37.40	-0.11	22.74
870.00	-0.17	26.23	-44.39	-39.01	-44.28	-40.84	-0.11	20.70
880.00	-0.16	24.23	-44.15	-43.52	-44.34	-44.91	-0.11	18.70
890.00	-0.17	22.30	-44.34	-45.29	-44.49	-46.51	-0.11	16.80
900.00	-0.16	20.41	-44.40	-45.14	-44.57	-45.25	-0.10	14.90
910.00	-0.16	18.55	-44.11	-45.66	-44.13	-44.49	-0.09	13.05
920.00	-0.15	16.67	-43.91	-47.95	-43.71	-48.25	-0.09	11.14
930.00	-0.15	14.85	-43.97	-50.49	-43.90	-51.04	-0.09	9.36
940.00	-0.15	13.09	-43.98	-51.35	-44.08	-51.60	-0.09	7.44
950.00	-0.15	11.42	-44.00	-51.71	-44.01	-52.32	-0.09	5.63
960.00	-0.15	9.72	-43.74	-53.29	-43.83	-53.84	-0.09	3.90
970.00	-0.15	7.92	-43.78	-55.67	-43.88	-56.54	-0.08	2.25
980.00	-0.15	6.25	-43.98	-57.92	-44.19	-57.63	-0.08	0.59
990.00	-0.14	4.62	-44.19	-57.74	-44.24	-56.58	-0.08	-1.05
1000.00	-0.14	3.10	-44.06	-57.37	-43.91	-57.76	-0.07	-2.71
1010.00	-0.14	1.49	-43.81	-59.64	-43.72	-60.29	-0.08	-4.34
1020.00	-0.14	-0.14	-43.71	-62.23	-44.03	-63.43	-0.08	-5.94
1030.00	-0.13	-1.72	-44.18	-64.63	-44.39	-64.98	-0.07	-7.46
1040.00	-0.14	-3.25	-44.49	-64.84	-44.49	-63.10	-0.07	-8.98
1050.00	-0.13	-4.71	-44.32	-63.87	-44.30	-63.75	-0.06	-10.53
1060.00	-0.13	-6.12	-44.24	-65.54	-44.15	-66.07	-0.07	-12.11
1070.00	-0.13	-7.63	-44.14	-67.57	-44.25	-68.70	-0.06	-13.69
1080.00	-0.12	-9.14	-44.35	-69.37	-44.47	-69.41	-0.07	-15.23
1090.00	-0.12	-10.59	-44.50	-69.91	-44.67	-69.96	-0.06	-16.73
1100.00	-0.12	-11.94	-44.58	-71.17	-44.66	-70.61	-0.06	-18.18
1110.00	-0.11	-13.36	-44.51	-71.89	-44.67	-71.91	-0.06	-19.59
1120.00	-0.12	-14.78	-44.71	-73.46	-44.88	-73.20	-0.05	-20.99
1130.00	-0.11	-16.21	-44.91	-74.21	-44.89	-73.27	-0.05	-22.44
1140.00	-0.12	-17.53	-44.90	-73.54	-44.74	-74.48	-0.05	-23.90
1150.00	-0.11	-18.80	-44.71	-75.33	-44.77	-77.17	-0.05	-25.23
1160.00	-0.12	-20.13	-44.81	-77.83	-45.05	-79.32	-0.04	-26.57
1170.00	-0.12	-21.51	-44.96	-79.89	-45.43	-80.22	-0.04	-27.83
1180.00	-0.11	-22.97	-45.49	-81.38	-45.67	-78.70	-0.04	-29.09
1190.00	-0.11	-24.25	-45.56	-79.27	-45.42	-77.86	-0.03	-30.41
1200.00	-0.11	-25.42	-45.25	-79.42	-45.10	-79.59	-0.04	-31.76
1210.00	-0.11	-26.66	-45.07	-82.50	-45.28	-84.34	-0.05	-33.11
1220.00	-0.11	-28.01	-45.43	-85.29	-45.74	-85.57	-0.04	-34.47
1230.00	-0.11	-29.46	-45.81	-85.51	-46.09	-85.78	-0.04	-35.82
1240.00	-0.11	-30.61	-45.85	-84.09	-46.02	-83.77	-0.04	-37.13
1250.00	-0.10	-31.82	-45.80	-85.64	-45.80	-84.79	-0.04	-38.44
1260.00	-0.11	-33.03	-45.98	-87.85	-45.97	-87.33	-0.03	-39.76
1270.00	-0.12	-34.32	-46.15	-87.11	-46.14	-87.11	-0.03	-41.10
1280.00	-0.11	-35.61	-45.87	-87.67	-46.18	-87.24	-0.04	-42.40
1290.00	-0.10	-36.76	-45.84	-89.57	-46.06	-89.89	-0.03	-43.64
1300.00	-0.09	-37.85	-46.07	-92.46	-46.33	-93.03	-0.02	-44.82
1310.00	-0.11	-39.03	-46.49	-93.50	-46.88	-93.23	-0.02	-45.94
1320.00	-0.11	-40.35	-46.73	-92.93	-46.95	-90.27	-0.02	-47.10
1330.00	-0.10	-41.60	-46.67	-91.47	-46.70	-89.50	-0.04	-48.31
1340.00	-0.10	-42.71	-46.49	-93.50	-46.29	-92.70	-0.03	-49.54
1350.00	-0.09	-43.74	-46.63	-95.46	-46.62	-97.16	-0.02	-50.75
1360.00	-0.11	-44.89	-46.73	-96.75	-47.13	-97.70	-0.03	-51.99
1370.00	-0.11	-46.14	-46.97	-98.09	-47.26	-95.66	-0.03	-53.20
1380.00	-0.11	-47.42	-47.06	-98.11	-47.21	-94.52	-0.02	-54.43
1390.00	-0.10	-48.46	-47.26	-99.22	-46.95	-97.43	-0.01	-55.64
1400.00	-0.09	-49.43	-47.29	-100.43	-47.36	-99.98	-0.02	-56.87
1410.00	-0.11	-50.55	-47.48	-100.50	-47.48	-98.20	-0.03	-58.08
1420.00	-0.11	-51.78	-47.25	-100.62	-47.31	-98.91	-0.03	-59.32
1430.00	-0.10	-52.98	-47.29	-102.37	-47.27	-101.57	-0.02	-60.49
1440.00	-0.09	-53.98	-47.66	-104.85	-47.71	-105.58	-0.01	-61.56
1450.00	-0.10	-54.94	-48.09	-105.82	-48.38	-103.42	-0.02	-62.64
1460.00	-0.10	-55.98	-48.23	-103.66	-48.27	-100.44	-0.01	-63.78
1470.00	-0.11	-57.16	-48.04	-103.28	-47.73	-101.52	-0.02	-64.88
1480.00	-0.11	-58.38	-47.73	-105.32	-47.53	-106.45	-0.02	-66.06
1490.00	-0.09	-59.36	-47.92	-107.51	-48.20	-109.68	-0.01	-67.23
1500.00	-0.10	-60.24	-48.33	-109.89	-48.73	-108.67	-0.02	-68.25
1510.00	-0.11	-61.38	-48.59	-108.77	-48.65	-106.50	-0.02	-69.36
1520.00	-0.11	-62.63	-48.74	-109.92	-48.47	-106.95	-0.01	-70.45
1530.00	-0.10	-63.74	-48.60	-109.23	-48.46	-109.63	-0.01	-71.54
1540.00	-0.09	-64.65	-48.56	-110.16	-48.79	-110.70	-0.01	-72.70
1550.00	-0.10	-65.52	-48.85	-111.26	-48.97	-110.15	-0.02	-73.85
1560.00	-0.11	-66.57	-49.00	-111.52	-48.83	-111.64	-0.02	-74.89
1570.00	-0.11	-67.78	-48.90	-113.29	-48.88	-113.71	-0.02	-76.00
1580.00	-0.10	-68.99	-48.86	-115.46	-49.13	-115.54	-0.02	-77.09
1590.00	-0.10	-69.86	-49.34	-116.37	-49.78	-113.98	-0.01	-78.11
1600.00	-0.10	-70.72	-49.74	-115.46	-49.80	-111.73	0.00	-79.18
1610.00	-0.12	-71.77	-49.68	-112.80	-49.25	-113.05	-0.01	-80.32
1620.00	-0.11	-72.95	-49.19	-114.97	-48.97	-117.14	-0.02	-81.32
1630.00	-0.10	-74.13	-49.16	-118.34	-49.45	-120.01	-0.02	-82.43
1640.00	-0.10	-75.00	-49.87	-121.89	-49.97	-121.46	-0.01	-83.56
1650.00	-0.10	-75.84	-50.41	-120.18	-50.57	-117.62	-0.01	-84.46
1660.00	-0.12	-76.95	-50.64	-117.96	-50.07	-115.66	-0.01	-85.39
1670.00	-0.10	-78.09	-50.01	-117.50	-50.00	-118.80	-0.01	-86.52
1680.00	-0.10	-79.13	-50.25	-120.52	-50.39	-122.06	0.00	-87.46
1690.00	-0.10	-79.95	-50.55	-121.10	-50.79	-123.21	-0.01	-88.41
1700.00	-0.11	-80.91	-50.95	-121.94	-50.62	-120.48	-0.02	-89.54
1710.00	-0.12	-81.89	-50.65	-122.26	-50.35	-121.71	0.00	-90.44
1720.00	-0.11	-83.05	-50.48	-125.38	-50.52	-127.20	-0.01	-91.42
1730.00	-0.10	-84.09	-51.21	-127.53	-51.34	-127.64	0.00	-92.41
1740.00	-0.10	-84.90	-51.85	-127.58	-51.45	-122.68	0.00	-93.31
1750.00	-0.12	-85.83	-51.74	-122.55	-51.36	-120.61	-0.02	-94.34
1760.00	-0.11	-86.79	-50.81	-122.88	-50.96	-124.91	-0.02	-95.52
1770.00	-0.11	-87.87	-50.71	-126.66	-51.01	-130.20	-0.01	-96.54
1780.00	-0.10	-88.88	-51.68	-134.04	-51.96	-132.21	-0.02	-97.51
1790.00	-0.10	-89.82	-52.33	-129.94	-52.49	-125.70	-0.02	-98.59
1800.00	-0.11	-90.57	-52.29	-125.78	-51.91	-123.94	0.00	-99.50
1810.00	-0.13	-91.63	-51.80	-125.74	-51.00	-128.36	-0.02	-100.56
1820.00	-0.11	-92.75	-51.80	-130.33	-52.12	-131.81	-0.01	-101.73
1830.00	-0.10	-93.61	-52.14	-132.46	-52.78	-132.48	0.00	-102.77
1840.00	-0.11	-94.52	-52.40	-129.70	-52.78	-129.02	-0.01	-103.71
1850.00	-0.10	-95.36	-52.51	-131.65	-52.22	-130.05	-0.01	-104.71
1860.00	-0.13	-96.34	-52.85	-134.27	-52.45	-133.80	0.01	-105.59
1870.00	-0.12	-97.38	-52.67	-136.53	-53.17	-135.45	-0.01	-106.42
1880.00	-0.10	-98.45	-53.30	-132.34	-53.47	-131.53	-0.01	-107.49
1890.00	-0.10	-99.16	-53.24	-130.06	-53.08	-129.55	0.00	-108.41
1900.00	-0.12	-100.00	-52.96	-130.76	-52.77	-132.00	-0.01	-109.37
1910.00	-0.12	-101.07	-52.92	-134.52	-52.99	-137.28	-0.02	-110.45
1920.00	-0.11	-102.11	-53.01	-137.44	-53.81	-138.15	0.00	-111.34
1930.00	-0.10	-103.04	-53.53	-140.99	-54.21	-132.71	-0.01	-112.24
1940.00	-0.11	-103.93	-54.10	-137.30	-53.91	-131.03	-0.01	-113.27
1950.00	-0.11	-104.67	-53.85	-136.57	-53.44	-135.00	0.01	-114.30
1960.00	-0.14	-105.61	-53.79	-136.41	-53.71	-138.38	-0.01	-115.26
1970.00	-0.12	-106.76	-54.07	-138.52	-54.12	-139.85	-0.03	-116.26
1980.00	-0.11	-107.64	-54.04	-143.90	-54.55	-139.02	-0.01	-117.29
1990.00	-0.12	-108.43	-54.43	-142.69	-54.47	-140.30	-0.01	-118.08
2000.00	-0.13	-109.37	-54.94	-142.49	-54.67	-140.34	-0.02	-119.12
2010.00	-0.11	-110.23	-54.60	-139.48	-54.67	-140.52	-0.01	-120.08
2020.00	-0.12	-111.27	-54.36	-144.48	-54.33	-142.45	0.00	-120.95
2030.00	-0.12	-112.25	-54.68	-144.76	-55.23	-139.30	-0.01	-122.03
2040.00	-0.11	-113.06	-54.81	-142.59	-54.54	-142.22	-0.01	-123.10
2050.00	-0.13	-113.81	-54.62	-140.80	-55.22	-144.41	-0.01	-123.98
2060.00	-0.14	-114.89	-54.95	-144.64	-55.25	-145.99	-0.02	-124.90
2070.00	-0.12	-115.93	-54.78	-149.73	-55.54	-146.38	0.01	-125.86
2080.00	-0.12	-116.73	-55.63	-152.24	-55.30	-144.14	0.01	-126.59
2090.00	-0.13	-117.75	-56.39	-145.87	-55.94	-139.05	-0.02	-127.54
2100.00	-0.13	-118.48	-55.93	-144.61	-54.97	-140.31	-0.01	-128.63
2110.00	-0.13	-119.33	-55.01	-147.30	-55.44	-147.36	-0.01	-129.39
2120.00	-0.13	-120.48	-55.75	-152.49	-55.72	-153.65	-0.01	-130.32
2130.00	-0.13	-121.36	-56.34	-149.66	-57.17	-145.84	-0.01	-131.30
2140.00	-0.13	-122.19	-56.62	-144.16	-56.39	-142.79	-0.01	-132.21
2150.00	-0.14	-123.02	-56.04	-147.34	-55.93	-148.70	-0.03	-133.22
2160.00	-0.13	-123.94	-56.06	-148.96	-55.99	-154.85	-0.01	-134.39
2170.00	-0.13	-124.88	-56.87	-151.80	-56.93	-154.63	-0.01	-135.32
2180.00	-0.14	-125.87	-56.97	-149.40	-56.83	-150.61	-0.03	-136.40
2190.00	-0.13	-126.71	-56.58	-148.26	-56.81	-148.15	-0.03	-137.50
2200.00	-0.14	-127.35	-56.18	-155.60	-56.33	-152.95	-0.01	-138.30
2210.00	-0.15	-128.39	-56.33	-157.02	-57.10	-154.91	-0.02	-139.11
2220.00	-0.14	-129.41	-57.81	-156.45	-57.62	-155.88	-0.01	-140.04
2230.00	-0.15	-130.23	-57.96	-156.17	-57.25	-151.07	-0.01	-140.89
2240.00	-0.15	-131.08	-57.27	-155.59	-57.15	-153.52	-0.03	-141.86
2250.00	-0.13	-131.80	-57.02	-156.23	-57.29	-158.39	-0.02	-142.89
2260.00	-0.14	-132.64	-56.96	-157.54	-57.65	-159.48	-0.02	-143.70
2270.00	-0.15	-133.72	-57.56	-160.30	-58.14	-153.13	-0.03	-144.65
2280.00	-0.13	-134.69	-57.49	-160.36	-57.59	-154.43	-0.03	-145.75
2290.00	-0.13	-135.40	-58.04	-159.45	-57.86	-156.13	-0.02	-146.66
2300.00	-0.15	-136.20	-58.22	-159.80	-57.78	-158.83	-0.03	-147.81
2310.00	-0.14	-137.09	-58.04	-162.38	-58.60	-162.40	-0.04	-148.90
2320.00	-0.15	-138.01	-57.49	-163.47	-58.32	-159.15	-0.03	-149.89
2330.00	-0.15	-138.98	-58.13	-161.10	-58.99	-159.62	-0.03	-150.80
2340.00	-0.14	-139.81	-58.43	-167.31	-58.07	-159.67	-0.02	-151.74
2350.00	-0.14	-140.49	-58.99	-164.40	-58.27	-165.07	0.00	-152.46
2360.00	-0.16	-141.39	-58.62	-164.92	-58.79	-164.57	-0.01	-153.19
2370.00	-0.16	-142.40	-58.67	-166.09	-58.57	-166.28	-0.02	-154.14
2380.00	-0.15	-143.27	-59.73	-163.55	-59.20	-165.04	-0.02	-154.85
2390.00	-0.16	-144.02	-59.16	-163.66	-58.65	-162.10	-0.04	-155.77
2400.00	-0.14	-144.76	-58.79	-165.66	-59.05	-168.98	-0.03	-156.66
2410.00	-0.15	-145.63	-58.72	-172.98	-59.21	-169.54	-0.01	-157.52
2420.00	-0.18	-146.63	-59.59	-174.50	-59.48	-163.91	-0.02	-158.29
2430.00	-0.16	-147.67	-60.03	-170.45	-59.49	-166.37	-0.03	-159.42
2440.00	-0.14	-148.36	-59.30	-172.73	-58.97	-164.70	-0.03	-160.40
2450.00	-0.16	-149.02	-58.21	-170.10	-58.57	-170.84	-0.03	-161.42
2460.00	-0.16	-149.94	-59.86	-177.19	-59.94	-169.59	-0.03	-162.45
2470.00	-0.17	-150.91	-59.83	-176.05	-59.38	-171.38	-0.02	-163.39
2480.00	-0.17	-151.88	-59.68	-173.84	-59.46	-168.38	-0.02	-164.10
2490.00	-0.17	-152.67	-58.35	-173.71	-58.79	-173.34	-0.03	-165.00
2500.00	-0.15	-153.43	-59.62	-179.04	-59.54	-176.54	-0.01	-165.89
2510.00	-0.17	-154.21	-60.67	176.38	-59.75	-173.72	-0.02	-166.70
2520.00	-0.18	-155.27	-59.70	-176.98	-59.21	-178.86	-0.04	-167.63
2530.00	-0.15	-156.22	-59.35	-174.30	-57.98	-179.03	-0.04	-168.59
2540.00	-0.17	-156.95	-58.45	178.03	-58.78	174.00	-0.04	-169.52
2550.00	-0.17	-157.73	-59.01	171.36	-59.66	177.55	-0.04	-170.53
2560.00	-0.17	-158.68	-59.38	170.87	-59.47	177.47	-0.03	-171.55
2570.00	-0.18	-159.61	-59.34	175.57	-58.67	-179.03	-0.03	-172.48
2580.00	-0.17	-160.64	-59.48	174.79	-57.44	173.85	-0.04	-173.56
2590.00	-0.15	-161.35	-58.92	170.31	-57.87	169.90	-0.03	-174.59
2600.00	-0.18	-161.96	-58.48	168.28	-59.37	166.37	-0.04	-175.37
2610.00	-0.20	-162.95	-58.88	167.45	-58.87	171.93	-0.03	-176.16
2620.00	-0.19	-164.00	-58.10	170.45	-58.17	173.31	-0.03	-176.88
