! Mini-Circuits								
! S2P DATA File Format								
! Type: HIGH PASS FILTER								
! Model: SHP-20+								
! All S Parameters are in dB deg format								
! TEST CONDITIONS: INPUT POWER = 0 dBm @ Temperature = -40deg C								
! 401 Frequency points								
!								
# MHz S DB R 50								
!								
!  FREQ    	 MAG(S11)  	 PHS(S11)  	 MAG(S12)  	 PHS(S12)  	 MAG(S21)  	 PHS(S21)  	 MAG(S22)  	 PHS(S22)  
								
								
0.50	0.00	-3.30	-97.78	-28.98	-100.46	154.11	0.00	-3.28
0.75	-0.01	-4.93	-104.99	-165.02	-102.90	-37.27	-0.01	-4.93
1.00	-0.01	-6.51	-95.88	-35.41	-94.69	-152.77	-0.01	-6.54
1.25	0.00	-8.18	-105.64	140.68	-103.69	-151.63	-0.01	-8.11
1.50	-0.01	-9.76	-112.67	110.93	-100.42	-105.25	0.00	-9.74
1.75	-0.03	-11.43	-94.95	174.38	-104.90	88.59	-0.01	-11.52
2.00	-0.01	-13.05	-109.38	-24.53	-96.47	-23.57	0.00	-12.93
2.25	0.00	-14.69	-94.88	-130.23	-101.23	-106.99	0.00	-14.61
2.50	-0.01	-16.28	-104.57	-124.44	-96.38	138.77	-0.01	-16.24
2.75	-0.01	-17.97	-105.77	84.39	-94.70	-103.89	-0.01	-17.92
3.00	-0.01	-19.61	-97.86	-155.55	-93.51	175.95	-0.01	-19.57
3.25	-0.01	-21.26	-95.19	-140.23	-97.30	-151.68	-0.01	-21.30
3.50	0.00	-23.03	-99.88	-156.83	-106.66	-75.84	0.00	-22.92
3.75	-0.01	-24.73	-96.52	-111.59	-90.88	-163.35	0.00	-24.58
4.00	-0.01	-26.38	-101.90	-150.25	-98.25	-158.14	0.00	-26.27
4.25	-0.02	-28.12	-87.54	-143.84	-93.03	-176.45	-0.01	-27.97
4.50	-0.01	-29.88	-90.93	-137.13	-91.50	-162.66	-0.01	-29.76
4.75	-0.02	-31.64	-88.46	-125.85	-91.81	-147.87	-0.01	-31.47
5.00	-0.01	-33.44	-86.37	-118.88	-87.84	-113.14	-0.01	-33.19
5.25	-0.01	-35.20	-83.17	-121.46	-84.43	-120.76	-0.02	-34.97
5.50	-0.01	-36.96	-80.45	-132.10	-81.23	-132.73	-0.01	-36.77
5.75	-0.02	-38.81	-79.17	-136.40	-78.05	-130.51	-0.01	-38.57
6.00	-0.01	-40.68	-76.36	-136.44	-76.86	-133.02	-0.02	-40.41
6.25	-0.01	-42.54	-73.58	-136.63	-74.23	-137.08	-0.01	-42.22
6.50	-0.02	-44.46	-71.96	-139.91	-71.34	-135.77	-0.02	-44.06
6.75	-0.01	-46.32	-69.23	-139.14	-69.25	-140.11	-0.02	-45.96
7.00	-0.02	-48.32	-66.64	-140.39	-66.73	-140.99	-0.02	-47.94
7.25	-0.02	-50.27	-64.46	-142.52	-64.32	-144.21	-0.02	-49.87
7.50	-0.02	-52.36	-62.16	-145.37	-62.41	-145.38	-0.02	-51.86
7.75	-0.02	-54.42	-60.13	-147.43	-60.06	-146.91	-0.03	-53.82
8.00	-0.03	-56.46	-58.06	-149.89	-58.04	-148.92	-0.02	-55.92
8.25	-0.03	-58.69	-56.00	-151.97	-55.96	-151.38	-0.03	-58.04
8.50	-0.04	-60.79	-53.92	-153.77	-53.89	-153.48	-0.03	-60.18
8.75	-0.04	-63.07	-51.94	-155.96	-51.87	-155.63	-0.03	-62.29
9.00	-0.04	-65.35	-49.93	-158.30	-49.89	-157.70	-0.04	-64.55
9.25	-0.05	-67.71	-47.97	-160.38	-47.91	-160.42	-0.05	-66.78
9.50	-0.05	-70.15	-46.05	-162.86	-46.02	-162.92	-0.04	-69.13
9.75	-0.05	-72.62	-44.15	-165.28	-44.09	-165.27	-0.04	-71.51
10.00	-0.05	-75.21	-42.28	-167.82	-42.24	-167.83	-0.04	-74.00
10.25	-0.06	-77.87	-40.41	-170.51	-40.37	-170.41	-0.05	-76.50
10.50	-0.06	-80.57	-38.56	-173.18	-38.52	-173.24	-0.06	-79.09
10.75	-0.07	-83.49	-36.72	-176.05	-36.68	-175.98	-0.07	-81.80
11.00	-0.08	-86.43	-34.90	-178.98	-34.87	-179.01	-0.07	-84.64
11.25	-0.10	-89.50	-33.08	178.04	-33.04	177.98	-0.08	-87.54
11.50	-0.11	-92.71	-31.28	174.90	-31.23	174.77	-0.08	-90.59
11.75	-0.11	-96.09	-29.46	171.55	-29.42	171.44	-0.09	-93.71
12.00	-0.13	-99.73	-27.65	167.93	-27.61	167.91	-0.11	-97.09
12.25	-0.14	-103.54	-25.83	164.18	-25.79	164.17	-0.13	-100.62
12.50	-0.16	-107.62	-24.00	160.22	-23.97	160.13	-0.14	-104.38
12.75	-0.19	-112.00	-22.16	155.94	-22.13	155.87	-0.17	-108.34
13.00	-0.24	-116.68	-20.32	151.27	-20.27	151.24	-0.19	-112.62
13.25	-0.28	-121.78	-18.43	146.41	-18.42	146.16	-0.24	-117.26
13.50	-0.35	-127.48	-16.57	140.77	-16.53	140.68	-0.31	-122.36
13.75	-0.45	-133.72	-14.68	134.63	-14.63	134.59	-0.40	-127.93
14.00	-0.59	-140.79	-12.76	127.79	-12.72	127.73	-0.53	-134.20
14.25	-0.80	-148.76	-10.85	120.14	-10.81	119.94	-0.73	-141.21
14.50	-1.14	-157.90	-8.96	111.25	-8.93	111.10	-1.04	-149.15
14.75	-1.64	-168.37	-7.13	101.13	-7.10	100.98	-1.52	-158.10
15.00	-2.41	179.66	-5.40	89.71	-5.37	89.54	-2.25	-168.09
15.25	-3.60	166.09	-3.89	76.88	-3.86	76.64	-3.38	-178.99
15.50	-5.37	151.28	-2.64	63.07	-2.62	62.80	-5.04	170.02
15.75	-7.93	135.35	-1.72	48.87	-1.70	48.66	-7.40	160.08
16.00	-11.53	117.82	-1.07	35.19	-1.07	34.93	-10.62	152.95
16.25	-17.03	96.81	-0.73	22.28	-0.73	22.07	-14.90	154.27
16.50	-26.10	47.74	-0.57	10.63	-0.57	10.44	-19.43	175.58
16.75	-23.57	-52.54	-0.51	0.27	-0.52	0.08	-19.78	-147.34
17.00	-18.33	-79.85	-0.51	-9.02	-0.51	-9.16	-17.28	-130.63
17.25	-15.76	-93.61	-0.52	-17.37	-0.52	-17.57	-15.36	-127.53
17.50	-14.34	-103.73	-0.53	-25.02	-0.54	-25.20	-14.16	-129.05
17.75	-13.56	-112.30	-0.55	-32.06	-0.55	-32.19	-13.48	-132.31
18.00	-13.19	-119.83	-0.55	-38.62	-0.55	-38.73	-13.15	-136.25
18.25	-13.09	-126.67	-0.54	-44.79	-0.54	-44.92	-13.08	-140.52
18.50	-13.20	-132.98	-0.51	-50.65	-0.52	-50.75	-13.20	-144.77
18.75	-13.48	-139.03	-0.49	-56.25	-0.50	-56.33	-13.50	-148.97
19.00	-13.92	-144.69	-0.46	-61.57	-0.46	-61.72	-13.92	-153.05
19.25	-14.49	-150.11	-0.44	-66.76	-0.44	-66.88	-14.49	-157.04
19.50	-15.18	-155.25	-0.40	-71.70	-0.40	-71.79	-15.18	-160.78
19.75	-16.01	-160.23	-0.37	-76.47	-0.37	-76.59	-16.01	-164.35
20.00	-16.99	-165.13	-0.35	-81.10	-0.34	-81.19	-16.97	-167.59
20.25	-18.14	-169.88	-0.31	-85.61	-0.31	-85.65	-18.08	-170.45
20.50	-19.46	-174.42	-0.29	-89.89	-0.29	-89.99	-19.35	-172.73
20.75	-21.02	-179.00	-0.27	-94.10	-0.27	-94.18	-20.85	-174.45
21.00	-22.90	176.56	-0.25	-98.16	-0.25	-98.20	-22.59	-175.22
21.25	-25.22	171.95	-0.24	-102.05	-0.24	-102.18	-24.69	-173.93
21.50	-28.28	166.98	-0.23	-105.86	-0.22	-105.95	-27.19	-169.70
21.75	-32.73	160.61	-0.22	-109.56	-0.22	-109.65	-30.17	-159.32
22.00	-41.50	144.53	-0.21	-113.13	-0.22	-113.22	-32.85	-135.85
22.25	-43.46	5.04	-0.20	-116.63	-0.20	-116.67	-33.08	-102.85
22.50	-34.16	-14.93	-0.20	-119.95	-0.20	-120.00	-30.81	-80.20
22.75	-29.88	-21.48	-0.20	-123.21	-0.20	-123.25	-28.36	-69.36
23.00	-27.21	-25.83	-0.19	-126.36	-0.21	-126.43	-26.33	-64.75
23.25	-25.29	-29.56	-0.20	-129.40	-0.20	-129.46	-24.73	-62.98
23.50	-23.84	-32.97	-0.20	-132.38	-0.20	-132.43	-23.45	-62.64
23.75	-22.67	-36.08	-0.20	-135.28	-0.20	-135.31	-22.39	-63.23
24.00	-21.73	-39.04	-0.20	-138.04	-0.21	-138.10	-21.52	-64.25
24.25	-20.96	-41.87	-0.21	-140.79	-0.21	-140.81	-20.80	-65.66
24.50	-20.31	-44.58	-0.20	-143.41	-0.21	-143.48	-20.18	-67.29
24.75	-19.77	-47.20	-0.21	-146.00	-0.21	-146.07	-19.65	-69.00
25.00	-19.29	-49.78	-0.22	-148.53	-0.21	-148.63	-19.22	-70.75
25.25	-18.91	-52.15	-0.22	-150.95	-0.21	-150.98	-18.84	-72.53
25.50	-18.56	-54.55	-0.22	-153.36	-0.22	-153.36	-18.52	-74.38
25.75	-18.29	-56.78	-0.22	-155.64	-0.22	-155.68	-18.26	-76.36
26.00	-18.05	-59.04	-0.22	-157.91	-0.22	-157.97	-18.03	-78.18
26.25	-17.85	-61.15	-0.22	-160.13	-0.22	-160.18	-17.83	-80.07
26.50	-17.67	-63.33	-0.21	-162.33	-0.22	-162.31	-17.68	-81.97
26.75	-17.54	-65.39	-0.22	-164.39	-0.22	-164.43	-17.54	-83.88
27.00	-17.45	-67.33	-0.22	-166.41	-0.22	-166.51	-17.45	-85.65
27.25	-17.35	-69.24	-0.22	-168.45	-0.22	-168.54	-17.37	-87.45
27.50	-17.29	-71.15	-0.22	-170.41	-0.22	-170.50	-17.32	-89.28
27.75	-17.26	-72.94	-0.22	-172.39	-0.22	-172.44	-17.29	-91.04
28.00	-17.24	-74.81	-0.22	-174.27	-0.22	-174.33	-17.27	-92.82
28.25	-17.24	-76.56	-0.21	-176.10	-0.21	-176.20	-17.27	-94.61
28.50	-17.25	-78.19	-0.21	-177.91	-0.21	-177.99	-17.30	-96.24
28.75	-17.29	-79.89	-0.21	-179.68	-0.21	-179.76	-17.32	-97.91
29.00	-17.32	-81.50	-0.21	178.55	-0.21	178.49	-17.38	-99.58
29.25	-17.38	-83.06	-0.21	176.84	-0.20	176.78	-17.44	-101.20
29.50	-17.45	-84.65	-0.20	175.16	-0.20	175.14	-17.51	-102.82
29.75	-17.53	-86.08	-0.20	173.54	-0.20	173.45	-17.59	-104.39
30.00	-17.63	-87.70	-0.20	171.84	-0.20	171.78	-17.70	-106.14
30.50	-17.85	-90.43	-0.20	168.70	-0.19	168.63	-17.92	-109.14
31.00	-18.09	-93.15	-0.18	165.67	-0.19	165.60	-18.18	-112.22
31.50	-18.38	-95.70	-0.17	162.73	-0.17	162.66	-18.50	-115.14
32.00	-18.71	-98.12	-0.17	159.90	-0.17	159.84	-18.84	-117.98
32.50	-19.06	-100.37	-0.16	157.13	-0.17	157.13	-19.20	-120.75
33.00	-19.46	-102.49	-0.16	154.49	-0.16	154.46	-19.61	-123.52
33.50	-19.87	-104.45	-0.15	151.92	-0.15	151.88	-20.05	-126.25
34.00	-20.33	-106.39	-0.15	149.42	-0.14	149.41	-20.52	-128.89
34.50	-20.82	-108.08	-0.14	147.01	-0.14	146.98	-21.01	-131.48
35.00	-21.31	-109.75	-0.14	144.70	-0.14	144.58	-21.57	-134.09
35.50	-21.87	-111.12	-0.13	142.38	-0.13	142.34	-22.14	-136.48
36.00	-22.45	-112.48	-0.13	140.15	-0.13	140.16	-22.75	-138.96
36.50	-23.04	-113.41	-0.12	138.00	-0.12	137.99	-23.42	-141.63
37.00	-23.69	-114.40	-0.12	135.89	-0.12	135.88	-24.11	-144.12
37.50	-24.39	-114.90	-0.11	133.88	-0.12	133.88	-24.86	-146.62
38.00	-25.11	-115.48	-0.11	131.93	-0.11	131.85	-25.70	-149.38
38.50	-25.89	-115.54	-0.11	129.98	-0.11	129.96	-26.55	-151.74
39.00	-26.70	-115.19	-0.10	128.09	-0.11	128.09	-27.51	-154.45
39.50	-27.59	-114.59	-0.10	126.29	-0.10	126.25	-28.54	-157.36
40.00	-28.47	-113.32	-0.10	124.52	-0.10	124.46	-29.70	-160.52
40.50	-29.48	-111.45	-0.10	122.77	-0.10	122.75	-30.99	-163.91
41.00	-30.48	-108.66	-0.09	121.06	-0.10	121.09	-32.44	-167.79
41.50	-31.54	-104.68	-0.10	119.41	-0.10	119.40	-34.11	-172.68
42.00	-32.60	-99.59	-0.09	117.81	-0.10	117.80	-36.10	-179.10
42.50	-33.60	-92.77	-0.10	116.22	-0.09	116.23	-38.40	172.10
43.00	-34.46	-84.09	-0.09	114.71	-0.09	114.70	-41.13	157.10
43.50	-35.07	-74.25	-0.09	113.24	-0.10	113.16	-43.74	131.66
44.00	-35.28	-63.27	-0.09	111.75	-0.09	111.72	-44.23	95.52
44.50	-35.10	-52.98	-0.09	110.33	-0.09	110.29	-42.33	66.46
45.00	-34.60	-43.63	-0.09	108.95	-0.09	108.91	-39.80	50.10
45.50	-33.94	-36.06	-0.09	107.60	-0.10	107.58	-37.58	39.96
46.00	-33.15	-30.03	-0.09	106.22	-0.09	106.23	-35.82	33.35
46.50	-32.38	-25.21	-0.09	104.96	-0.10	104.89	-34.37	28.51
47.00	-31.63	-21.68	-0.09	103.70	-0.10	103.64	-33.12	24.66
47.50	-30.88	-19.05	-0.09	102.42	-0.09	102.39	-32.08	21.67
48.00	-30.22	-17.05	-0.09	101.19	-0.09	101.16	-31.16	18.94
48.50	-29.59	-15.54	-0.09	99.96	-0.09	99.96	-30.36	16.66
49.00	-29.01	-14.20	-0.09	98.81	-0.09	98.77	-29.63	14.60
49.50	-28.50	-13.55	-0.09	97.67	-0.09	97.66	-28.98	12.58
50.00	-27.98	-12.90	-0.09	96.56	-0.09	96.53	-28.42	10.77
55.00	-24.64	-13.92	-0.10	86.37	-0.10	86.34	-24.74	-2.80
56.00	-24.22	-14.71	-0.10	84.59	-0.10	84.53	-24.28	-4.93
57.00	-23.83	-15.56	-0.10	82.81	-0.10	82.77	-23.90	-6.92
58.00	-23.48	-16.47	-0.11	81.14	-0.10	81.09	-23.53	-8.91
59.00	-23.18	-17.40	-0.11	79.52	-0.10	79.50	-23.22	-10.82
60.00	-22.91	-18.66	-0.11	77.93	-0.10	77.89	-22.92	-12.36
61.00	-22.67	-19.53	-0.11	76.40	-0.10	76.35	-22.65	-14.32
62.00	-22.43	-20.32	-0.11	74.91	-0.11	74.87	-22.42	-15.99
63.00	-22.25	-21.51	-0.11	73.50	-0.11	73.43	-22.24	-17.63
64.00	-22.10	-22.45	-0.11	72.06	-0.11	72.05	-22.07	-19.16
65.00	-21.92	-23.46	-0.11	70.73	-0.11	70.72	-21.90	-20.61
66.00	-21.79	-24.43	-0.11	69.40	-0.11	69.38	-21.74	-21.97
67.00	-21.65	-25.39	-0.11	68.09	-0.11	68.14	-21.63	-23.29
68.00	-21.53	-26.27	-0.11	66.89	-0.11	66.89	-21.51	-24.74
69.00	-21.42	-27.28	-0.11	65.70	-0.11	65.69	-21.41	-26.14
70.00	-21.34	-28.23	-0.11	64.48	-0.11	64.49	-21.32	-27.32
71.00	-21.27	-28.97	-0.11	63.37	-0.11	63.33	-21.23	-28.59
72.00	-21.19	-29.91	-0.12	62.24	-0.11	62.22	-21.13	-29.74
73.00	-21.13	-30.82	-0.12	61.15	-0.12	61.12	-21.09	-30.89
74.00	-21.07	-31.57	-0.11	60.10	-0.12	60.11	-21.02	-32.24
75.00	-21.04	-32.38	-0.12	59.05	-0.11	59.02	-20.98	-33.22
76.00	-20.99	-33.24	-0.12	58.04	-0.12	58.02	-20.93	-34.40
77.00	-20.94	-34.04	-0.12	57.04	-0.12	57.02	-20.90	-35.46
78.00	-20.92	-34.82	-0.12	56.09	-0.12	56.09	-20.88	-36.55
79.00	-20.91	-35.51	-0.12	55.15	-0.12	55.12	-20.83	-37.61
80.00	-20.88	-36.33	-0.11	54.23	-0.12	54.25	-20.81	-38.51
81.00	-20.86	-37.11	-0.12	53.35	-0.12	53.29	-20.80	-39.55
82.00	-20.85	-37.71	-0.11	52.44	-0.12	52.40	-20.78	-40.45
83.00	-20.83	-38.40	-0.12	51.58	-0.12	51.58	-20.78	-41.43
84.00	-20.84	-39.13	-0.12	50.76	-0.11	50.73	-20.77	-42.33
85.00	-20.82	-39.83	-0.11	49.92	-0.11	49.93	-20.76	-43.25
86.00	-20.82	-40.36	-0.12	49.09	-0.12	49.09	-20.76	-44.11
87.00	-20.84	-41.05	-0.12	48.31	-0.11	48.25	-20.75	-44.98
88.00	-20.83	-41.80	-0.12	47.51	-0.12	47.54	-20.76	-45.87
89.00	-20.86	-42.49	-0.12	46.77	-0.12	46.76	-20.78	-46.68
90.00	-20.87	-42.94	-0.12	46.05	-0.12	46.03	-20.79	-47.50
91.00	-20.87	-43.63	-0.12	45.30	-0.11	45.29	-20.80	-48.33
92.00	-20.89	-44.16	-0.12	44.57	-0.12	44.55	-20.82	-49.12
93.00	-20.91	-44.77	-0.12	43.86	-0.12	43.85	-20.83	-49.94
94.00	-20.95	-45.26	-0.12	43.18	-0.12	43.17	-20.86	-50.66
95.00	-20.94	-45.81	-0.11	42.50	-0.12	42.47	-20.88	-51.45
96.00	-20.99	-46.51	-0.12	41.82	-0.12	41.83	-20.89	-52.07
97.00	-21.01	-46.89	-0.12	41.13	-0.12	41.11	-20.92	-52.82
98.00	-21.04	-47.49	-0.12	40.54	-0.12	40.49	-20.96	-53.60
99.00	-21.08	-47.94	-0.12	39.88	-0.12	39.90	-20.98	-54.24
100.00	-21.10	-48.55	-0.12	39.23	-0.12	39.20	-21.02	-55.02
101.00	-21.14	-48.96	-0.11	38.63	-0.12	38.62	-21.06	-55.64
102.00	-21.16	-49.57	-0.12	37.98	-0.12	38.02	-21.08	-56.36
103.00	-21.21	-49.95	-0.12	37.45	-0.12	37.44	-21.14	-56.87
104.00	-21.25	-50.45	-0.12	36.82	-0.12	36.83	-21.16	-57.62
105.00	-21.31	-50.94	-0.12	36.24	-0.12	36.24	-21.18	-58.28
106.00	-21.32	-51.33	-0.11	35.69	-0.12	35.70	-21.23	-58.89
107.00	-21.37	-51.85	-0.12	35.12	-0.12	35.14	-21.27	-59.55
108.00	-21.41	-52.19	-0.12	34.58	-0.11	34.58	-21.31	-60.12
109.00	-21.45	-52.71	-0.11	34.01	-0.12	34.03	-21.36	-60.71
110.00	-21.50	-53.15	-0.12	33.49	-0.11	33.47	-21.39	-61.35
111.00	-21.54	-53.56	-0.11	32.97	-0.11	32.93	-21.43	-61.93
112.00	-21.59	-53.95	-0.12	32.44	-0.12	32.45	-21.48	-62.49
113.00	-21.65	-54.38	-0.12	31.90	-0.12	31.95	-21.53	-63.09
114.00	-21.69	-54.80	-0.12	31.43	-0.12	31.44	-21.59	-63.65
115.00	-21.74	-55.17	-0.12	30.94	-0.12	30.90	-21.64	-64.16
116.00	-21.79	-55.61	-0.12	30.40	-0.12	30.41	-21.68	-64.77
117.00	-21.84	-55.94	-0.12	29.96	-0.12	29.92	-21.73	-65.26
118.00	-21.90	-56.36	-0.11	29.46	-0.11	29.44	-21.78	-65.83
119.00	-21.95	-56.78	-0.12	28.98	-0.12	28.96	-21.84	-66.32
120.00	-22.00	-57.11	-0.11	28.51	-0.12	28.49	-21.88	-66.86
125.00	-22.29	-59.03	-0.11	26.17	-0.11	26.16	-22.16	-69.40
130.00	-22.60	-60.76	-0.12	24.06	-0.11	24.02	-22.46	-71.80
135.00	-22.92	-62.26	-0.11	22.06	-0.12	22.06	-22.77	-73.95
140.00	-23.26	-63.80	-0.11	20.16	-0.11	20.13	-23.09	-76.05
145.00	-23.60	-65.26	-0.11	18.33	-0.12	18.33	-23.44	-78.01
150.00	-23.97	-66.64	-0.10	16.59	-0.11	16.61	-23.80	-79.96
155.00	-24.33	-67.99	-0.11	14.95	-0.10	14.93	-24.16	-81.63
160.00	-24.73	-69.26	-0.11	13.34	-0.10	13.35	-24.56	-83.36
165.00	-25.19	-70.46	-0.11	11.80	-0.10	11.83	-24.95	-85.11
170.00	-25.61	-71.76	-0.10	10.36	-0.10	10.36	-25.37	-86.55
175.00	-26.07	-72.85	-0.11	8.95	-0.10	8.95	-25.82	-87.91
180.00	-26.47	-74.08	-0.10	7.55	-0.10	7.53	-26.25	-89.51
185.00	-26.99	-75.20	-0.10	6.22	-0.10	6.23	-26.73	-90.86
190.00	-27.48	-76.35	-0.10	4.92	-0.10	4.95	-27.21	-92.29
195.00	-28.01	-77.46	-0.10	3.69	-0.10	3.69	-27.70	-93.50
200.00	-28.54	-78.54	-0.10	2.45	-0.10	2.45	-28.23	-94.82
205.00	-29.09	-79.63	-0.10	1.31	-0.10	1.30	-28.77	-95.92
210.00	-29.66	-80.85	-0.10	0.10	-0.10	0.11	-29.32	-97.18
215.00	-30.25	-81.98	-0.11	-1.00	-0.10	-0.99	-29.90	-98.20
220.00	-30.84	-83.16	-0.10	-2.10	-0.09	-2.06	-30.48	-99.18
225.00	-31.45	-84.32	-0.10	-3.18	-0.10	-3.16	-31.06	-100.24
230.00	-32.08	-85.63	-0.10	-4.22	-0.10	-4.21	-31.68	-101.24
235.00	-32.72	-86.92	-0.10	-5.29	-0.10	-5.22	-32.31	-102.20
240.00	-33.39	-88.30	-0.10	-6.28	-0.10	-6.26	-32.92	-102.91
245.00	-34.05	-89.73	-0.10	-7.32	-0.10	-7.27	-33.55	-103.87
250.00	-34.75	-91.27	-0.10	-8.27	-0.10	-8.24	-34.18	-104.67
255.00	-35.40	-92.70	-0.10	-9.22	-0.11	-9.20	-34.83	-105.49
260.00	-36.08	-94.25	-0.10	-10.17	-0.10	-10.16	-35.52	-106.39
265.00	-36.74	-96.03	-0.10	-11.14	-0.11	-11.13	-36.15	-107.31
270.00	-37.41	-97.45	-0.10	-12.09	-0.11	-12.08	-36.76	-108.19
275.00	-38.07	-98.92	-0.10	-13.00	-0.10	-12.92	-37.41	-109.13
280.00	-38.76	-100.39	-0.10	-13.88	-0.10	-13.87	-38.01	-110.33
285.00	-39.35	-101.84	-0.10	-14.76	-0.10	-14.76	-38.67	-111.43
290.00	-40.03	-102.95	-0.10	-15.63	-0.10	-15.63	-39.26	-112.95
295.00	-40.58	-103.98	-0.11	-16.53	-0.10	-16.44	-39.85	-114.19
300.00	-41.23	-105.00	-0.10	-17.36	-0.11	-17.34	-40.44	-116.01
305.00	-41.87	-105.50	-0.10	-18.20	-0.11	-18.17	-41.04	-118.15
310.00	-42.36	-105.91	-0.11	-19.04	-0.10	-19.05	-41.41	-120.30
315.00	-42.88	-105.63	-0.11	-19.86	-0.10	-19.85	-41.91	-122.56
320.00	-43.37	-105.52	-0.11	-20.68	-0.11	-20.62	-42.25	-124.88
325.00	-43.85	-105.85	-0.11	-21.48	-0.11	-21.46	-42.62	-127.83
330.00	-44.24	-104.42	-0.11	-22.31	-0.11	-22.28	-42.84	-130.31
335.00	-44.54	-104.28	-0.10	-23.05	-0.11	-23.05	-43.00	-133.05
340.00	-44.81	-103.43	-0.11	-23.88	-0.11	-23.85	-43.14	-135.44
345.00	-44.97	-101.88	-0.11	-24.64	-0.11	-24.62	-43.15	-138.03
350.00	-45.14	-100.63	-0.11	-25.43	-0.11	-25.41	-43.21	-140.08
355.00	-45.08	-99.41	-0.11	-26.20	-0.11	-26.21	-43.12	-142.75
360.00	-45.19	-98.01	-0.11	-26.98	-0.11	-26.96	-42.97	-144.91
365.00	-44.94	-96.08	-0.11	-27.75	-0.11	-27.71	-42.81	-146.77
370.00	-44.74	-95.28	-0.12	-28.48	-0.11	-28.53	-42.58	-148.49
375.00	-44.53	-93.84	-0.11	-29.25	-0.11	-29.23	-42.32	-150.32
380.00	-44.19	-92.96	-0.12	-29.98	-0.11	-29.97	-42.00	-151.68
385.00	-43.91	-92.13	-0.12	-30.74	-0.11	-30.75	-41.76	-152.78
390.00	-43.59	-91.19	-0.11	-31.46	-0.11	-31.46	-41.45	-154.05
395.00	-43.23	-90.18	-0.12	-32.21	-0.11	-32.20	-41.16	-155.42
400.00	-42.93	-89.42	-0.12	-32.96	-0.12	-32.96	-40.88	-156.09
405.00	-42.66	-89.02	-0.12	-33.67	-0.12	-33.66	-40.53	-157.21
410.00	-42.29	-88.74	-0.13	-34.37	-0.12	-34.42	-40.28	-158.02
415.00	-41.94	-88.16	-0.12	-35.07	-0.12	-35.10	-39.92	-158.70
420.00	-41.59	-87.69	-0.13	-35.80	-0.13	-35.82	-39.67	-159.49
425.00	-41.34	-87.75	-0.13	-36.54	-0.12	-36.48	-39.44	-160.25
430.00	-41.08	-87.25	-0.13	-37.23	-0.12	-37.20	-39.14	-160.97
435.00	-40.76	-87.66	-0.12	-37.94	-0.13	-37.89	-38.86	-161.79
440.00	-40.56	-87.51	-0.13	-38.59	-0.12	-38.62	-38.66	-162.56
445.00	-40.35	-87.41	-0.13	-39.32	-0.13	-39.32	-38.42	-163.42
450.00	-40.19	-88.17	-0.12	-40.04	-0.12	-39.97	-38.22	-164.15
455.00	-40.04	-88.60	-0.12	-40.71	-0.12	-40.67	-38.02	-164.71
460.00	-39.80	-88.82	-0.13	-41.40	-0.12	-41.42	-37.85	-165.13
465.00	-39.67	-89.16	-0.12	-42.13	-0.12	-42.11	-37.71	-165.50
470.00	-39.46	-89.67	-0.13	-42.82	-0.12	-42.80	-37.52	-166.18
475.00	-39.36	-90.66	-0.12	-43.50	-0.13	-43.46	-37.35	-166.69
480.00	-39.22	-91.26	-0.13	-44.19	-0.13	-44.19	-37.22	-167.13
485.00	-39.10	-91.76	-0.13	-44.81	-0.13	-44.82	-37.07	-167.82
490.00	-38.95	-92.62	-0.13	-45.52	-0.13	-45.51	-36.98	-168.11
495.00	-38.80	-93.01	-0.13	-46.18	-0.13	-46.17	-36.83	-168.64
500.00	-38.69	-93.72	-0.14	-46.84	-0.14	-46.79	-36.71	-168.91
505.00	-38.63	-94.46	-0.13	-47.50	-0.14	-47.49	-36.62	-169.55
510.00	-38.51	-94.64	-0.13	-48.15	-0.14	-48.20	-36.50	-170.18
515.00	-38.46	-95.17	-0.14	-48.86	-0.13	-48.82	-36.41	-170.59
520.00	-38.34	-96.01	-0.13	-49.48	-0.13	-49.48	-36.28	-171.42
525.00	-38.33	-96.41	-0.13	-50.16	-0.13	-50.16	-36.23	-171.75
530.00	-38.29	-96.73	-0.13	-50.82	-0.13	-50.86	-36.16	-172.44
535.00	-38.30	-97.02	-0.13	-51.50	-0.13	-51.49	-36.11	-173.00
540.00	-38.26	-97.27	-0.13	-52.15	-0.13	-52.17	-36.05	-173.98
545.00	-38.23	-97.91	-0.14	-52.80	-0.13	-52.80	-35.98	-174.59
550.00	-38.25	-98.38	-0.14	-53.46	-0.14	-53.50	-35.96	-175.19
555.00	-38.30	-98.61	-0.14	-54.13	-0.14	-54.19	-35.90	-176.31
560.00	-38.28	-99.08	-0.13	-54.76	-0.14	-54.82	-35.87	-176.84
565.00	-38.34	-99.05	-0.14	-55.41	-0.14	-55.47	-35.82	-178.04
570.00	-38.36	-99.52	-0.14	-56.08	-0.14	-56.08	-35.79	-178.59
575.00	-38.43	-99.66	-0.14	-56.77	-0.15	-56.78	-35.77	-179.66
580.00	-38.51	-100.03	-0.14	-57.40	-0.15	-57.43	-35.75	179.86
585.00	-38.58	-100.54	-0.14	-58.03	-0.15	-58.04	-35.68	179.23
