! Mini-Circuits								
! S2P DATA File Format								
! Type: HIGH PASS FILTER								
! Model:ZFHP-1R2+								
! All S Parameters are in dB deg format								
! TEST CONDITIONS: INPUT POWER = 0 dBm @ Temperature = -40 deg C								
! 401 Frequency points								
!								
# MHz S DB R 50	
!								
!FREQMAG(S11)PHS(S11)MAG(S12)PHS(S12)MAG(S21)PHS(S21)MAG(S22)PHS(S22)
0.03	0.01	-4.80	-82.34	67.28	-81.43	93.53	0.01	-4.65	
0.035	0.01	-5.53	-85.98	87.44	-83.18	82.78	0.00	-5.39	
0.04	0.01	-6.27	-90.42	112.62	-79.52	110.52	0.01	-6.15	
0.045	0.00	-7.04	-84.14	80.96	-82.30	89.97	0.00	-6.89	
0.05	0.00	-7.80	-83.23	84.57	-82.18	83.04	0.00	-7.65	
0.055	0.00	-8.55	-82.04	81.36	-81.68	83.87	-0.01	-8.41	
0.06	0.00	-9.30	-81.36	80.98	-80.89	81.15	-0.01	-9.14	
0.065	-0.01	-10.06	-80.38	84.62	-80.09	83.30	-0.01	-9.91	
0.07	-0.01	-10.82	-80.09	83.13	-79.97	82.40	-0.01	-10.66	
0.075	-0.01	-11.57	-80.10	82.60	-79.30	84.00	-0.01	-11.43	
0.08	-0.01	-12.34	-80.24	79.36	-79.63	81.80	-0.02	-12.16	
0.085	-0.01	-13.11	-79.39	76.77	-79.47	75.46	-0.02	-12.93	
0.09	-0.02	-13.86	-79.74	80.23	-79.33	73.04	-0.02	-13.70	
0.095	-0.01	-14.63	-79.08	79.14	-79.10	77.14	-0.02	-14.45	
0.1	-0.02	-15.40	-79.42	77.20	-78.95	77.02	-0.02	-15.22	
0.105	-0.02	-16.16	-79.08	75.06	-79.05	77.57	-0.02	-15.98	
0.11	-0.02	-16.93	-79.39	79.57	-79.74	77.56	-0.02	-16.75	
0.115	-0.02	-17.70	-80.41	78.23	-80.02	73.82	-0.02	-17.52	
0.12	-0.02	-18.48	-80.57	73.68	-80.32	74.84	-0.02	-18.30	
0.125	-0.02	-19.25	-80.50	75.19	-80.64	74.95	-0.02	-19.07	
0.13	-0.02	-20.04	-81.68	76.23	-81.06	75.68	-0.02	-19.83	
0.135	-0.02	-20.82	-81.63	77.98	-81.55	74.36	-0.02	-20.61	
0.14	-0.02	-21.59	-82.67	76.04	-82.60	69.89	-0.02	-21.39	
0.145	-0.02	-22.39	-85.32	77.37	-83.52	78.63	-0.02	-22.18	
0.15	-0.02	-23.18	-85.10	79.62	-85.55	72.14	-0.02	-22.95	
0.155	-0.02	-23.95	-88.40	92.45	-86.36	86.36	-0.02	-23.74	
0.16	-0.02	-24.76	-90.65	96.36	-89.32	86.30	-0.02	-24.54	
0.165	-0.02	-25.56	-97.25	93.11	-95.86	92.90	-0.02	-25.31	
0.17	-0.02	-26.36	-96.05	155.21	-98.55	150.47	-0.02	-26.10	
0.175	-0.03	-27.17	-92.89	-162.80	-93.21	-174.75	-0.02	-26.92	
0.18	-0.03	-27.98	-89.00	-144.48	-89.13	-141.94	-0.02	-27.71	
0.185	-0.03	-28.79	-84.19	-136.05	-85.52	-136.33	-0.02	-28.49	
0.19	-0.03	-29.61	-82.57	-137.23	-82.82	-134.92	-0.02	-29.33	
0.195	-0.03	-30.42	-80.49	-135.59	-80.60	-132.38	-0.02	-30.12	
0.2	-0.03	-31.23	-78.81	-128.50	-79.44	-129.88	-0.02	-30.95	
0.205	-0.03	-32.07	-77.27	-129.91	-77.37	-131.45	-0.02	-31.76	
0.21	-0.03	-32.90	-76.05	-131.62	-75.95	-129.49	-0.02	-32.58	
0.215	-0.03	-33.72	-74.62	-130.86	-74.93	-129.05	-0.02	-33.41	
0.22	-0.03	-34.56	-73.41	-131.12	-73.73	-129.88	-0.02	-34.24	
0.225	-0.03	-35.40	-72.57	-132.14	-72.49	-130.86	-0.02	-35.06	
0.23	-0.03	-36.25	-71.36	-132.30	-71.78	-130.74	-0.02	-35.90	
0.235	-0.03	-37.09	-70.57	-131.56	-70.88	-132.29	-0.03	-36.74	
0.24	-0.03	-37.97	-69.90	-133.64	-69.96	-132.55	-0.02	-37.57	
0.245	-0.03	-38.81	-69.03	-133.66	-69.12	-133.11	-0.03	-38.43	
0.25	-0.04	-39.68	-68.29	-133.94	-68.46	-133.71	-0.03	-39.28	
0.255	-0.03	-40.54	-67.65	-134.05	-67.88	-134.07	-0.03	-40.13	
0.26	-0.03	-41.44	-67.03	-135.14	-67.20	-133.09	-0.03	-40.98	
0.265	-0.04	-42.29	-66.27	-135.74	-66.28	-136.05	-0.03	-41.85	
0.27	-0.04	-43.21	-65.72	-136.88	-65.78	-136.11	-0.03	-42.73	
0.275	-0.04	-44.08	-65.21	-138.18	-65.29	-137.80	-0.03	-43.61	
0.28	-0.04	-44.99	-64.68	-139.12	-64.74	-137.30	-0.03	-44.47	
0.285	-0.04	-45.89	-64.18	-139.30	-64.29	-139.04	-0.03	-45.36	
0.29	-0.04	-46.77	-63.74	-140.49	-63.84	-139.92	-0.03	-46.25	
0.295	-0.04	-47.70	-63.30	-141.09	-63.37	-140.73	-0.03	-47.16	
0.3	-0.04	-48.60	-62.91	-142.05	-62.96	-141.96	-0.03	-48.04	
0.305	-0.04	-49.50	-62.38	-143.14	-62.46	-142.23	-0.03	-48.93	
0.31	-0.04	-50.47	-62.04	-143.78	-62.14	-143.46	-0.03	-49.86	
0.315	-0.04	-51.39	-61.60	-144.22	-61.76	-143.62	-0.03	-50.77	
0.32	-0.04	-52.34	-61.34	-145.48	-61.36	-145.28	-0.03	-51.70	
0.325	-0.04	-53.29	-60.94	-146.32	-60.99	-145.91	-0.03	-52.64	
0.33	-0.05	-54.26	-60.65	-147.67	-60.64	-147.49	-0.03	-53.57	
0.335	-0.05	-55.25	-60.30	-148.58	-60.41	-147.63	-0.03	-54.52	
0.34	-0.05	-56.21	-60.05	-149.44	-60.09	-149.10	-0.03	-55.47	
0.345	-0.05	-57.21	-59.76	-150.21	-59.82	-149.70	-0.03	-56.45	
0.35	-0.05	-58.22	-59.42	-150.87	-59.54	-150.81	-0.03	-57.41	
0.355	-0.05	-59.21	-59.23	-152.14	-59.26	-151.85	-0.03	-58.41	
0.36	-0.05	-60.23	-58.99	-152.88	-59.04	-153.06	-0.03	-59.38	
0.365	-0.05	-61.26	-58.74	-154.20	-58.77	-154.02	-0.03	-60.37	
0.37	-0.05	-62.30	-58.50	-155.19	-58.56	-154.77	-0.03	-61.36	
0.375	-0.06	-63.33	-58.32	-156.16	-58.34	-156.01	-0.03	-62.37	
0.38	-0.06	-64.40	-58.12	-157.30	-58.20	-157.17	-0.04	-63.40	
0.385	-0.06	-65.46	-57.94	-158.41	-57.94	-158.05	-0.04	-64.44	
0.39	-0.06	-66.54	-57.76	-159.44	-57.84	-159.23	-0.04	-65.48	
0.395	-0.06	-67.61	-57.59	-160.69	-57.64	-160.45	-0.04	-66.51	
0.4	-0.06	-68.74	-57.48	-161.98	-57.48	-161.47	-0.04	-67.59	
0.405	-0.07	-69.85	-57.26	-162.77	-57.31	-162.58	-0.04	-68.67	
0.41	-0.07	-70.98	-57.15	-163.88	-57.23	-163.77	-0.04	-69.73	
0.415	-0.07	-72.13	-56.99	-165.16	-57.04	-164.95	-0.04	-70.82	
0.42	-0.07	-73.27	-56.89	-166.45	-56.90	-166.21	-0.04	-71.94	
0.425	-0.07	-74.44	-56.75	-167.44	-56.78	-167.30	-0.04	-73.04	
0.43	-0.08	-75.65	-56.67	-168.88	-56.67	-168.55	-0.04	-74.18	
0.435	-0.08	-76.84	-56.57	-170.26	-56.57	-169.83	-0.04	-75.34	
0.44	-0.08	-78.04	-56.40	-171.29	-56.45	-170.91	-0.04	-76.49	
0.445	-0.08	-79.27	-56.32	-172.55	-56.35	-172.38	-0.05	-77.66	
0.45	-0.09	-80.53	-56.20	-173.98	-56.22	-173.74	-0.05	-78.82	
0.455	-0.09	-81.79	-56.09	-175.37	-56.09	-175.20	-0.05	-80.03	
0.46	-0.09	-83.06	-55.97	-176.60	-55.97	-176.70	-0.05	-81.23	
0.465	-0.10	-84.39	-55.85	-178.11	-55.83	-177.68	-0.05	-82.44	
0.47	-0.10	-85.69	-55.72	-179.33	-55.69	-179.28	-0.05	-83.69	
0.475	-0.10	-87.04	-55.56	179.37	-55.53	179.03	-0.05	-84.96	
0.48	-0.11	-88.41	-55.41	177.71	-55.38	177.91	-0.06	-86.20	
0.485	-0.11	-89.79	-55.25	176.26	-55.20	176.31	-0.06	-87.51	
0.49	-0.11	-91.18	-55.04	174.97	-54.98	174.84	-0.06	-88.82	
0.495	-0.12	-92.62	-54.82	173.20	-54.76	173.26	-0.07	-90.16	
0.5	-0.12	-94.08	-54.60	171.66	-54.53	171.71	-0.07	-91.48	
0.55	-0.20	-110.45	-50.62	155.10	-50.49	155.17	-0.11	-106.25	
0.6	-0.33	-130.96	-44.51	136.48	-44.56	137.07	-0.17	-123.92	
0.65	-0.61	-159.52	-40.34	113.49	-40.93	116.33	-0.29	-146.38	
0.7	-1.78	150.67	-30.08	-129.98	-30.32	-121.38	-0.60	-178.51	
0.75	-13.88	-9.75	-7.58	134.96	-6.34	132.11	-2.78	115.32	
0.8	-11.28	162.72	-1.85	46.30	-1.82	46.38	-10.43	110.40	
0.85	-16.12	84.35	-0.96	-6.91	-0.95	-7.15	-16.03	91.22	
0.9	-21.57	12.97	-0.63	-44.38	-0.63	-44.52	-21.10	88.57	
0.95	-23.01	-40.95	-0.49	-72.66	-0.48	-72.73	-22.77	82.60	
1	-23.27	-68.16	-0.40	-95.14	-0.40	-95.18	-23.34	63.78	
1.05	-23.68	-83.75	-0.34	-113.69	-0.33	-113.73	-23.81	42.10	
1.1	-24.44	-95.42	-0.30	-129.45	-0.30	-129.47	-24.32	24.37	
1.15	-25.38	-108.51	-0.26	-142.98	-0.26	-143.00	-25.12	10.53	
1.2	-26.96	-123.92	-0.23	-154.86	-0.23	-154.88	-26.22	3.92	
1.25	-28.95	-144.73	-0.21	-165.36	-0.21	-165.36	-27.41	4.54	
1.3	-30.76	-174.94	-0.19	-174.76	-0.19	-174.78	-28.16	12.48	
1.35	-30.81	147.66	-0.18	176.80	-0.18	176.77	-27.86	24.11	
1.4	-28.88	116.68	-0.17	169.11	-0.17	169.10	-26.60	33.59	
1.45	-26.55	96.17	-0.16	162.14	-0.16	162.11	-24.98	38.60	
1.5	-24.52	82.13	-0.16	155.76	-0.16	155.74	-23.43	40.16	
1.55	-22.87	71.72	-0.16	149.85	-0.16	149.86	-22.07	39.61	
1.6	-21.53	63.39	-0.16	144.44	-0.16	144.43	-20.92	37.87	
1.65	-20.44	56.36	-0.16	139.45	-0.16	139.41	-19.96	35.57	
1.7	-19.53	50.33	-0.17	134.79	-0.17	134.76	-19.14	32.88	
1.75	-18.78	44.94	-0.17	130.45	-0.17	130.43	-18.45	30.01	
1.8	-18.15	40.13	-0.17	126.38	-0.17	126.38	-17.87	27.18	
1.85	-17.61	35.73	-0.18	122.60	-0.18	122.57	-17.37	24.35	
1.9	-17.17	31.71	-0.18	119.05	-0.18	119.03	-16.95	21.52	
1.95	-16.79	27.96	-0.19	115.69	-0.19	115.69	-16.59	18.85	
2	-16.46	24.52	-0.19	112.55	-0.19	112.55	-16.29	16.20	
2.05	-16.18	21.28	-0.20	109.57	-0.19	109.57	-16.02	13.71	
2.1	-15.94	18.25	-0.20	106.77	-0.20	106.75	-15.80	11.29	
2.15	-15.74	15.37	-0.20	104.10	-0.20	104.08	-15.61	8.95	
2.2	-15.56	12.69	-0.20	101.56	-0.20	101.59	-15.44	6.72	
2.25	-15.41	10.15	-0.21	99.18	-0.21	99.16	-15.30	4.58	
2.3	-15.29	7.74	-0.21	96.89	-0.21	96.89	-15.19	2.53	
2.35	-15.18	5.44	-0.21	94.71	-0.21	94.70	-15.09	0.56	
2.4	-15.10	3.30	-0.21	92.63	-0.21	92.63	-15.00	-1.36	
2.45	-15.03	1.21	-0.21	90.66	-0.21	90.64	-14.94	-3.15	
2.5	-14.96	-0.77	-0.21	88.75	-0.21	88.75	-14.88	-4.92	
2.55	-14.92	-2.67	-0.21	86.93	-0.21	86.93	-14.84	-6.63	
2.6	-14.88	-4.49	-0.21	85.20	-0.21	85.18	-14.81	-8.26	
2.65	-14.85	-6.21	-0.21	83.51	-0.21	83.50	-14.78	-9.80	
2.7	-14.84	-7.87	-0.21	81.92	-0.21	81.88	-14.77	-11.32	
2.75	-14.83	-9.48	-0.21	80.38	-0.21	80.33	-14.76	-12.80	
2.8	-14.82	-11.01	-0.21	78.89	-0.21	78.85	-14.76	-14.19	
2.85	-14.82	-12.51	-0.20	77.45	-0.21	77.41	-14.76	-15.56	
2.9	-14.83	-13.92	-0.21	76.07	-0.20	76.05	-14.77	-16.87	
2.95	-14.84	-15.32	-0.20	74.72	-0.21	74.73	-14.79	-18.11	
3	-14.86	-16.65	-0.20	73.45	-0.20	73.41	-14.81	-19.36	
3.05	-14.89	-17.92	-0.20	72.20	-0.20	72.19	-14.83	-20.55	
3.1	-14.91	-19.17	-0.20	71.00	-0.20	70.99	-14.86	-21.68	
3.15	-14.94	-20.36	-0.20	69.85	-0.20	69.82	-14.89	-22.81	
3.2	-14.97	-21.53	-0.20	68.70	-0.19	68.71	-14.92	-23.91	
3.25	-15.00	-22.65	-0.19	67.63	-0.19	67.61	-14.95	-24.95	
3.3	-15.04	-23.74	-0.19	66.56	-0.19	66.54	-15.00	-25.97	
3.35	-15.08	-24.82	-0.19	65.55	-0.19	65.54	-15.03	-26.98	
3.4	-15.11	-25.83	-0.19	64.54	-0.19	64.52	-15.07	-27.92	
3.45	-15.16	-26.83	-0.19	63.59	-0.19	63.56	-15.11	-28.84	
3.5	-15.20	-27.77	-0.19	62.65	-0.19	62.63	-15.16	-29.75	
3.55	-15.25	-28.75	-0.18	61.73	-0.19	61.73	-15.21	-30.68	
3.6	-15.29	-29.66	-0.18	60.85	-0.18	60.84	-15.25	-31.52	
3.65	-15.34	-30.55	-0.18	60.01	-0.18	59.99	-15.30	-32.38	
3.7	-15.38	-31.39	-0.18	59.15	-0.18	59.15	-15.35	-33.15	
3.75	-15.43	-32.23	-0.18	58.35	-0.18	58.35	-15.40	-33.94	
3.8	-15.48	-33.07	-0.17	57.56	-0.18	57.56	-15.44	-34.72	
3.85	-15.54	-33.91	-0.17	56.79	-0.17	56.77	-15.50	-35.50	
3.9	-15.58	-34.63	-0.17	56.04	-0.18	56.01	-15.55	-36.24	
3.95	-15.63	-35.41	-0.17	55.30	-0.17	55.28	-15.60	-36.98	
4	-15.69	-36.14	-0.17	54.59	-0.17	54.56	-15.65	-37.69	
5	-16.75	-48.20	-0.14	43.29	-0.14	43.25	-16.72	-49.12	
6	-17.76	-56.74	-0.12	35.69	-0.13	35.67	-17.72	-57.36	
7	-18.69	-63.45	-0.13	30.26	-0.13	30.24	-18.63	-63.79	
8	-19.52	-69.04	-0.14	26.16	-0.14	26.15	-19.45	-69.23	
9	-20.27	-73.91	-0.15	22.96	-0.15	22.94	-20.20	-73.91	
10	-20.94	-78.04	-0.15	20.37	-0.16	20.35	-20.87	-78.00	
11	-21.54	-81.73	-0.16	18.25	-0.16	18.26	-21.47	-81.54	
12	-22.07	-85.07	-0.16	16.47	-0.17	16.45	-22.01	-84.74	
13	-22.54	-88.11	-0.17	14.94	-0.17	14.91	-22.48	-87.64	
14	-22.96	-90.93	-0.18	13.61	-0.18	13.62	-22.90	-90.31	
15	-23.32	-93.62	-0.18	12.46	-0.18	12.42	-23.27	-92.84	
16	-23.64	-96.21	-0.19	11.41	-0.19	11.40	-23.60	-95.21	
17	-23.92	-98.77	-0.20	10.49	-0.20	10.48	-23.90	-97.57	
18	-24.17	-101.30	-0.20	9.65	-0.21	9.65	-24.17	-99.90	
19	-24.39	-103.78	-0.21	8.92	-0.21	8.90	-24.42	-102.20	
20	-24.61	-106.29	-0.22	8.23	-0.22	8.21	-24.65	-104.51	
21	-24.81	-108.77	-0.23	7.62	-0.23	7.59	-24.88	-106.81	
22	-25.00	-111.15	-0.24	7.07	-0.24	7.04	-25.10	-109.01	
23	-25.18	-113.49	-0.24	6.55	-0.25	6.51	-25.33	-111.19	
24	-25.37	-115.74	-0.25	6.07	-0.25	6.05	-25.56	-113.22	
25	-25.55	-117.96	-0.26	5.63	-0.26	5.60	-25.78	-115.21	
26	-25.71	-120.08	-0.26	5.20	-0.26	5.20	-26.00	-117.11	
27	-25.88	-122.09	-0.27	4.82	-0.27	4.82	-26.22	-118.90	
28	-26.05	-124.01	-0.27	4.45	-0.27	4.46	-26.44	-120.56	
29	-26.20	-125.81	-0.27	4.13	-0.27	4.11	-26.65	-122.19	
30	-26.34	-127.58	-0.28	3.81	-0.28	3.79	-26.86	-123.72	
31	-26.49	-129.30	-0.28	3.50	-0.28	3.48	-27.07	-125.20	
32	-26.62	-130.93	-0.28	3.20	-0.28	3.20	-27.27	-126.59	
33	-26.75	-132.48	-0.28	2.89	-0.28	2.89	-27.47	-127.94	
34	-26.89	-133.98	-0.28	2.64	-0.28	2.62	-27.68	-129.23	
35	-27.00	-135.49	-0.28	2.37	-0.28	2.37	-27.87	-130.45	
36	-27.12	-136.89	-0.28	2.12	-0.28	2.12	-28.07	-131.66	
37	-27.24	-138.28	-0.28	1.87	-0.28	1.88	-28.26	-132.84	
38	-27.34	-139.62	-0.28	1.63	-0.28	1.64	-28.45	-133.97	
39	-27.44	-140.87	-0.28	1.42	-0.28	1.40	-28.64	-135.09	
40	-27.55	-142.14	-0.28	1.19	-0.28	1.19	-28.83	-136.16	
41	-27.65	-143.38	-0.28	0.96	-0.28	0.96	-29.01	-137.23	
42	-27.75	-144.59	-0.28	0.75	-0.28	0.76	-29.20	-138.36	
43	-27.83	-145.84	-0.28	0.56	-0.28	0.54	-29.38	-139.41	
44	-27.93	-147.00	-0.28	0.35	-0.28	0.33	-29.58	-140.42	
45	-28.02	-148.16	-0.28	0.15	-0.28	0.14	-29.76	-141.45	
46	-28.10	-149.33	-0.28	-0.05	-0.28	-0.05	-29.94	-142.53	
47	-28.18	-150.45	-0.28	-0.24	-0.28	-0.24	-30.12	-143.56	
48	-28.27	-151.59	-0.28	-0.42	-0.28	-0.43	-30.30	-144.58	
49	-28.34	-152.70	-0.27	-0.61	-0.28	-0.63	-30.48	-145.70	
50	-28.42	-153.80	-0.27	-0.78	-0.27	-0.80	-30.66	-146.70	
51	-28.50	-154.88	-0.27	-0.96	-0.27	-0.98	-30.83	-147.81	
52	-28.57	-155.98	-0.27	-1.15	-0.27	-1.16	-31.01	-148.91	
53	-28.64	-157.07	-0.27	-1.32	-0.27	-1.32	-31.18	-149.99	
54	-28.71	-158.16	-0.27	-1.49	-0.27	-1.50	-31.36	-151.12	
55	-28.78	-159.23	-0.27	-1.66	-0.27	-1.66	-31.52	-152.26	
56	-28.85	-160.29	-0.27	-1.83	-0.27	-1.84	-31.69	-153.45	
57	-28.91	-161.34	-0.27	-1.99	-0.27	-2.00	-31.86	-154.63	
58	-28.97	-162.42	-0.27	-2.16	-0.27	-2.16	-32.02	-155.83	
59	-29.03	-163.46	-0.27	-2.32	-0.27	-2.32	-32.19	-157.05	
60	-29.09	-164.45	-0.26	-2.46	-0.26	-2.48	-32.34	-158.25	
61	-29.14	-165.55	-0.26	-2.64	-0.26	-2.65	-32.49	-159.58	
62	-29.20	-166.54	-0.26	-2.79	-0.26	-2.80	-32.64	-160.85	
63	-29.26	-167.55	-0.26	-2.95	-0.26	-2.94	-32.79	-162.18	
64	-29.30	-168.54	-0.26	-3.09	-0.26	-3.12	-32.94	-163.43	
65	-29.36	-169.48	-0.26	-3.23	-0.26	-3.25	-33.10	-164.75	
66	-29.41	-170.48	-0.25	-3.41	-0.26	-3.42	-33.22	-166.06	
67	-29.46	-171.47	-0.26	-3.55	-0.26	-3.57	-33.36	-167.44	
68	-29.50	-172.41	-0.26	-3.71	-0.26	-3.71	-33.50	-168.80	
69	-29.55	-173.30	-0.25	-3.85	-0.26	-3.87	-33.63	-170.19	
70	-29.60	-174.26	-0.25	-4.01	-0.26	-4.01	-33.77	-171.60	
71	-29.66	-175.11	-0.25	-4.15	-0.26	-4.14	-33.90	-172.87	
72	-29.70	-176.03	-0.25	-4.29	-0.26	-4.30	-34.02	-174.28	
73	-29.75	-176.91	-0.25	-4.44	-0.25	-4.44	-34.13	-175.71	
74	-29.80	-177.76	-0.25	-4.59	-0.25	-4.58	-34.25	-177.13	
75	-29.85	-178.63	-0.25	-4.75	-0.25	-4.72	-34.37	-178.54	
76	-29.90	-179.49	-0.25	-4.87	-0.25	-4.88	-34.49	-179.94	
77	-29.95	179.69	-0.25	-5.01	-0.25	-5.01	-34.59	178.61	
78	-30.00	178.88	-0.25	-5.14	-0.25	-5.15	-34.70	177.23	
79	-30.06	178.05	-0.25	-5.28	-0.25	-5.29	-34.79	175.66	
80	-30.12	177.20	-0.25	-5.42	-0.25	-5.42	-34.90	174.27	
81	-30.18	176.41	-0.25	-5.56	-0.25	-5.55	-34.99	172.67	
82	-30.25	175.54	-0.25	-5.71	-0.25	-5.71	-35.11	171.09	
83	-30.32	174.74	-0.25	-5.83	-0.25	-5.84	-35.19	169.58	
84	-30.42	173.95	-0.25	-5.97	-0.25	-5.99	-35.39	168.03	
85	-30.50	173.28	-0.25	-6.09	-0.25	-6.11	-35.43	166.63	
86	-30.60	172.62	-0.25	-6.22	-0.25	-6.22	-35.60	165.39	
87	-30.69	172.14	-0.25	-6.34	-0.25	-6.35	-35.71	164.37	
88	-30.76	171.75	-0.25	-6.48	-0.25	-6.48	-35.78	163.68	
89	-30.81	171.33	-0.25	-6.59	-0.25	-6.61	-35.80	162.89	
90	-30.83	170.80	-0.25	-6.70	-0.25	-6.71	-35.75	162.02	
91	-30.85	170.13	-0.25	-6.84	-0.25	-6.82	-35.68	160.87	
92	-30.88	169.37	-0.25	-6.95	-0.25	-6.97	-35.60	159.49	
93	-30.91	168.54	-0.24	-7.08	-0.24	-7.11	-35.53	158.02	
94	-30.96	167.63	-0.24	-7.22	-0.24	-7.21	-35.45	156.53	
95	-31.00	166.72	-0.24	-7.35	-0.24	-7.34	-35.37	155.02	
96	-31.05	165.74	-0.24	-7.47	-0.24	-7.48	-35.29	153.40	
97	-31.10	164.80	-0.24	-7.62	-0.24	-7.61	-35.22	151.89	
98	-31.16	163.84	-0.24	-7.72	-0.24	-7.74	-35.12	150.33	
99	-31.22	162.77	-0.24	-7.86	-0.24	-7.87	-35.02	148.86	
100	-31.28	161.77	-0.23	-8.01	-0.24	-8.00	-34.93	147.50	
105	-31.59	156.43	-0.24	-8.64	-0.23	-8.64	-34.32	140.66	
110	-31.88	150.82	-0.23	-9.27	-0.23	-9.28	-33.63	135.23	
115	-32.16	145.16	-0.23	-9.90	-0.23	-9.90	-32.95	130.98	
120	-32.45	139.62	-0.23	-10.50	-0.23	-10.51	-32.39	127.59	
125	-32.82	134.35	-0.24	-11.10	-0.24	-11.12	-32.00	124.72	
130	-33.35	130.05	-0.24	-11.68	-0.24	-11.68	-31.89	122.61	
135	-34.03	128.48	-0.24	-12.20	-0.25	-12.21	-32.08	122.52	
140	-34.34	128.95	-0.24	-12.72	-0.24	-12.73	-32.06	124.49	
145	-34.41	127.85	-0.23	-13.29	-0.23	-13.31	-31.82	125.21	
150	-34.50	125.60	-0.22	-13.87	-0.23	-13.90	-31.59	124.68	
155	-34.60	122.77	-0.22	-14.47	-0.22	-14.48	-31.40	123.66	
160	-34.65	119.55	-0.22	-15.04	-0.22	-15.06	-31.19	122.32	
165	-34.68	116.27	-0.22	-15.62	-0.22	-15.63	-31.00	120.88	
170	-34.65	113.23	-0.22	-16.20	-0.22	-16.22	-30.83	119.31	
175	-34.61	110.61	-0.22	-16.77	-0.22	-16.78	-30.72	117.84	
180	-34.57	108.65	-0.22	-17.33	-0.22	-17.34	-30.69	116.36	
185	-34.54	107.57	-0.22	-17.89	-0.22	-17.91	-30.74	114.93	
190	-34.48	107.13	-0.21	-18.43	-0.22	-18.47	-30.87	113.38	
195	-34.39	106.96	-0.22	-19.01	-0.22	-19.01	-31.04	111.68	
200	-34.22	106.56	-0.22	-19.55	-0.22	-19.57	-31.17	109.48	
205	-34.00	105.55	-0.21	-20.11	-0.22	-20.13	-31.26	106.82	
210	-33.70	104.03	-0.21	-20.69	-0.22	-20.70	-31.27	103.76	
215	-33.38	101.82	-0.22	-21.26	-0.22	-21.29	-31.18	100.32	
220	-33.02	99.29	-0.22	-21.82	-0.22	-21.83	-31.01	96.84	
225	-32.65	96.81	-0.22	-22.38	-0.22	-22.40	-30.83	93.44	
230	-32.31	94.54	-0.22	-22.91	-0.23	-22.94	-30.68	90.19	
235	-32.01	92.78	-0.23	-23.47	-0.23	-23.48	-30.58	87.16	
240	-31.73	91.66	-0.23	-23.99	-0.23	-23.99	-30.55	84.51	
245	-31.50	90.88	-0.23	-24.52	-0.23	-24.51	-30.56	82.13	
250	-31.29	90.34	-0.23	-25.05	-0.23	-25.04	-30.54	79.96	
255	-31.08	89.84	-0.23	-25.59	-0.23	-25.59	-30.48	77.99	
260	-30.87	89.02	-0.23	-26.13	-0.22	-26.12	-30.32	76.23	
265	-30.66	87.62	-0.22	-26.68	-0.22	-26.68	-30.08	74.59	
270	-30.48	85.73	-0.22	-27.22	-0.23	-27.24	-29.80	73.27	
275	-30.33	83.44	-0.23	-27.79	-0.22	-27.81	-29.49	72.28	
280	-30.21	81.14	-0.23	-28.33	-0.23	-28.33	-29.22	71.68	
285	-30.13	79.06	-0.23	-28.86	-0.23	-28.88	-28.99	71.41	
290	-30.06	77.34	-0.23	-29.40	-0.23	-29.43	-28.82	71.38	
295	-30.01	75.93	-0.23	-29.94	-0.23	-29.96	-28.70	71.25	
300	-29.98	74.74	-0.23	-30.50	-0.23	-30.50	-28.63	70.90	
305	-29.98	73.81	-0.23	-31.05	-0.22	-31.07	-28.62	70.40	
310	-30.01	72.98	-0.22	-31.60	-0.23	-31.63	-28.66	69.69	
315	-30.09	72.02	-0.23	-32.17	-0.23	-32.18	-28.73	69.01	
320	-30.19	71.02	-0.23	-32.74	-0.23	-32.74	-28.79	68.45	
325	-30.32	69.85	-0.23	-33.30	-0.23	-33.30	-28.86	68.13	
330	-30.47	68.64	-0.23	-33.84	-0.23	-33.86	-28.92	67.96	
335	-30.61	67.41	-0.23	-34.41	-0.24	-34.40	-28.99	68.10	
340	-30.73	66.34	-0.24	-34.95	-0.24	-34.99	-29.08	68.13	
345	-30.85	65.67	-0.24	-35.51	-0.24	-35.53	-29.23	67.95	
350	-30.96	65.44	-0.24	-36.08	-0.24	-36.08	-29.44	67.52	
355	-31.07	65.81	-0.25	-36.66	-0.25	-36.65	-29.73	66.63	
360	-31.15	66.67	-0.25	-37.22	-0.25	-37.21	-30.09	65.41	
365	-31.24	68.06	-0.25	-37.77	-0.25	-37.79	-30.52	63.91	
370	-31.32	69.64	-0.26	-38.34	-0.26	-38.37	-30.96	62.50	
375	-31.39	71.07	-0.27	-38.94	-0.27	-38.96	-31.44	61.14	
380	-31.44	72.34	-0.27	-39.53	-0.27	-39.55	-31.82	60.70	
385	-31.47	73.32	-0.28	-40.12	-0.28	-40.12	-32.21	60.90	
390	-31.49	74.08	-0.30	-40.68	-0.30	-40.71	-32.55	62.01	
395	-31.49	74.75	-0.31	-41.28	-0.31	-41.28	-32.88	63.88	
400	-31.41	75.47	-0.32	-41.83	-0.33	-41.85	-33.19	66.63	
405	-31.24	76.45	-0.34	-42.40	-0.35	-42.42	-33.50	70.00	
410	-30.96	77.79	-0.37	-42.93	-0.37	-42.94	-33.75	74.47	
415	-30.53	79.13	-0.40	-43.47	-0.39	-43.47	-33.83	79.66	
420	-29.98	80.32	-0.42	-43.96	-0.42	-43.99	-33.56	85.16	
425	-29.34	80.59	-0.45	-44.41	-0.46	-44.45	-32.88	89.93	
430	-28.70	79.64	-0.48	-44.79	-0.49	-44.84	-31.87	92.75	
435	-28.12	77.17	-0.51	-45.13	-0.52	-45.16	-30.71	92.93	
440	-27.68	73.42	-0.53	-45.40	-0.53	-45.43	-29.58	91.07	
445	-27.40	68.70	-0.53	-45.63	-0.54	-45.67	-28.63	87.76	
450	-27.28	63.39	-0.53	-45.90	-0.53	-45.90	-27.91	83.70	
